;$FILEVERSION=1.1
;$STARTTIME=45318.5171969444
;
;   Start time: 27.01.2024 12:24:45.816.0
;   Generated by PCAN-View v5.1.0.887
;
;   Message Number
;   |         Time Offset (ms)
;   |         |        Type
;   |         |        |        ID (hex)
;   |         |        |        |     Data Length
;   |         |        |        |     |   Data Bytes (hex) ...
;   |         |        |        |     |   |
;---+--   ----+----  --+--  ----+---  +  -+ -- -- -- -- -- -- --
     1)         1.1  Rx         0122  8  00 00 00 00 00 00 09 12 
     2)         1.7  Rx         02A2  8  00 00 00 00 00 00 00 00 
     3)         2.0  Rx         0123  8  00 00 00 00 00 00 09 12 
     4)         2.2  Rx         0124  8  00 00 00 00 00 00 90 27 
     5)         2.5  Rx         0125  8  00 00 01 08 00 40 09 10 
     6)         3.1  Rx         02FC  8  0A 00 00 00 00 00 40 00 
     7)         3.4  Rx         0081  8  00 00 10 0D 53 00 00 00 
     8)         3.7  Rx         0084  8  00 00 00 7C C0 8F 98 D3 
     9)         3.9  Rx         0085  8  96 00 0D 62 FB 60 00 80 
    10)         4.1  Rx         0086  8  81 1B 8F 7B F1 7D 20 35 
    11)         5.5  Rx         02D2  8  00 BE 20 00 00 00 00 00 
    12)         6.0  Rx         0150  8  7E 00 08 00 45 01 02 B2 
    13)         6.7  Rx         02A9  8  00 00 00 00 00 00 00 00 
    14)         7.6  Rx         02FB  8  00 00 07 CA 46 50 07 BF 
    15)         8.8  Rx         00E0  8  FF 3B 00 E0 C0 41 00 00 
    16)         9.0  Rx         0281  8  00 03 00 01 00 00 06 C1 
    17)         9.4  Rx         02C3  8  00 00 00 00 00 00 00 00 
    18)        10.2  Rx         01B0  8  05 20 50 01 00 00 06 2D 
    19)        11.5  Rx         0286  8  01 40 01 40 00 00 00 00 
    20)        11.7  Rx         00F9  8  30 00 FF FF FF FF FF FF 
    21)        12.0  Rx         00FA  8  0C FF FF FF FF FF FF FF 
    22)        12.2  Rx         012F  8  00 3F 00 00 00 00 00 00 
    23)        12.5  Rx         02AA  8  00 00 00 00 00 00 00 00 
    24)        12.9  Rx         02FD  8  00 00 00 00 00 00 00 00 
    25)        13.3  Rx         0081  8  00 00 10 0D 53 00 00 00 
    26)        13.6  Rx         0084  8  00 00 00 7C C0 8F 99 FC 
    27)        13.8  Rx         0085  8  96 00 0D 61 A5 60 00 90 
    28)        14.1  Rx         0086  8  81 1B 8F 7B F1 7D 20 35 
    29)        14.8  Rx         0113  8  00 00 50 00 AA 09 05 17 
    30)        15.0  Rx         0139  8  01 00 00 00 7F 7F 00 00 
    31)        15.3  Rx         0285  8  01 40 01 40 00 00 00 00 
    32)        15.6  Rx         01A2  8  80 05 00 80 60 06 02 DA 
    33)        15.8  Rx         01A3  8  FF 00 30 00 00 00 0C 50 
    34)        16.0  Rx         0288  8  80 00 00 37 00 11 00 00 
    35)        16.3  Rx         01A6  8  FF FF 00 FF FF 00 00 00 
    36)        16.5  Rx         01A7  8  FF FF 00 FF FF 00 00 00 
    37)        16.8  Rx         028A  8  B4 00 02 00 F0 5B 04 62 
    38)        17.0  Rx         028C  8  00 F0 00 00 00 00 00 00 
    39)        17.3  Rx         02AC  8  00 00 00 00 00 00 00 00 
    40)        17.5  Rx         0386  8  5B 00 8E 7E 64 00 88 0A 
    41)        17.7  Rx         0260  8  00 00 00 00 00 00 1A A8 
    42)        18.0  Rx         03F8  8  10 00 64 2C 80 00 00 00 
    43)        18.7  Rx         00E0  8  FF 3B 00 E0 D0 A1 00 00 
    44)        20.3  Rx         0191  8  00 00 81 20 00 80 09 7E 
    45)        21.8  Rx         0122  8  00 00 00 00 00 00 0A 63 
    46)        22.0  Rx         0123  8  00 00 00 00 00 00 0A 63 
    47)        22.8  Rx         0081  8  00 00 10 0D 53 00 00 00 
    48)        23.0  Rx         0124  8  00 00 00 00 00 00 A0 FA 
    49)        23.3  Rx         0125  8  00 00 01 08 00 40 0A 61 
    50)        23.5  Rx         0294  8  01 00 00 00 00 00 00 00 
    51)        23.8  Rx         0084  8  00 00 00 7C C0 8F 9A 8D 
    52)        24.0  Rx         0085  8  96 00 0D 61 78 60 00 A0 
    53)        24.2  Rx         0086  8  81 1B 8F 7B F1 7D 20 35 
    54)        24.5  Rx         026D  8  00 4D 0D 04 1A 00 00 00 
    55)        26.2  Rx         0150  8  7E 00 08 00 45 01 03 9D 
    56)        28.6  Rx         00E0  8  FF 3B 00 E0 E0 AE 00 00 
    57)        30.1  Rx         01B0  8  05 20 50 01 00 00 07 02 
    58)        31.7  Rx         00F9  8  30 00 FF FF FF FF FF FF 
    59)        32.0  Rx         00FA  8  0C FF FF FF FF FF FF FF 
    60)        32.2  Rx         02B3  8  C1 00 00 00 00 00 00 00 
    61)        32.5  Rx         02B6  8  00 00 00 00 00 00 00 00 
    62)        32.9  Rx         0081  8  00 00 10 0D 53 00 00 00 
    63)        33.9  Rx         0084  8  00 00 00 7C C0 8F 9B A2 
    64)        34.1  Rx         0085  8  96 00 0D 63 93 60 00 B0 
    65)        34.3  Rx         0086  8  81 1B 8F 7B F1 7D 20 35 
    66)        34.5  Rx         01A2  8  80 05 00 80 70 06 02 3A 
    67)        34.8  Rx         0113  8  00 00 50 00 AA 09 06 66 
    68)        35.1  Rx         0218  8  3D 00 00 00 00 00 0E A6 
    69)        38.6  Rx         00E0  8  FF 3B 00 E0 F0 4E 00 00 
    70)        39.8  Rx         0191  8  00 00 81 20 00 80 0A 0F 
    71)        40.0  Rx         01B2  8  13 00 2B 3F 00 00 00 00 
    72)        40.9  Rx         01F0  8  00 08 00 00 05 05 09 E6 
    73)        41.2  Rx         0122  8  00 00 00 00 00 00 0B 4C 
    74)        41.6  Rx         01F2  8  B1 AD AA B1 2E 2C 2E 2D 
    75)        41.9  Rx         0123  8  00 00 00 00 00 00 0B 4C 
    76)        42.1  Rx         0124  8  00 00 00 00 00 00 B0 54 
    77)        42.8  Rx         0081  8  00 00 10 0D 53 00 00 00 
    78)        43.0  Rx         0125  8  00 00 01 08 00 40 0B 4E 
    79)        43.2  Rx         0084  8  00 00 00 7C C0 8F 9C 6F 
    80)        43.5  Rx         0085  8  96 00 0D 64 D2 60 00 C0 
    81)        44.3  Rx         0086  8  81 1B 8F 7B F1 7D 20 35 
    82)        46.1  Rx         0150  8  7E 00 08 00 45 01 04 50 
    83)        46.7  Rx         02A0  8  00 00 00 00 00 00 00 00 
    84)        46.9  Rx         02A1  8  00 00 00 7F 7F 7F 7F 7F 
    85)        47.2  Rx         02A4  8  00 80 00 00 18 03 28 00 
    86)        47.4  Rx         02B4  8  00 00 00 00 00 00 00 00 
    87)        48.7  Rx         00E0  8  FF 3B 00 E0 00 7D 00 00 
    88)        49.7  Rx         01B0  8  05 20 50 01 00 00 08 98 
    89)        49.9  Rx         02E0  8  A1 00 20 00 00 00 0B 8C 
    90)        51.7  Rx         02A5  8  00 0F 07 1F 1F 00 00 00 
    91)        51.9  Rx         00F9  8  30 00 FF FF FF FF FF FF 
    92)        52.2  Rx         00FA  8  0C FF FF FF FF FF FF FF 
    93)        52.8  Rx         0081  8  00 00 10 0D 53 00 00 00 
    94)        53.8  Rx         0084  8  00 00 00 7C C0 8F 9D 40 
    95)        54.1  Rx         0085  8  96 00 0D 65 C9 60 00 D0 
    96)        54.3  Rx         0086  8  81 1B 8F 7B F1 7D 20 35 
    97)        54.6  Rx         01A2  8  80 05 00 80 80 06 02 09 
    98)        54.8  Rx         0113  8  00 00 50 00 AA 09 07 49 
    99)        56.7  Rx         02A6  8  00 00 00 00 00 00 00 7F 
   100)        58.6  Rx         00E0  8  FF 3B 00 E0 10 9D 00 00 
   101)        59.9  Rx         0191  8  00 00 81 20 00 80 0B 20 
   102)        61.0  Rx         0122  8  00 00 00 00 00 00 0C 81 
   103)        61.6  Rx         02C8  8  00 80 05 00 00 00 00 00 
   104)        61.8  Rx         0123  8  00 00 00 00 00 00 0C 81 
   105)        62.1  Rx         0124  8  00 00 00 00 00 00 C0 6F 
   106)        62.3  Rx         02A7  8  00 00 00 00 00 00 00 00 
   107)        62.9  Rx         0081  8  00 00 10 0D 53 00 00 00 
   108)        63.1  Rx         0125  8  00 00 01 08 00 40 0C 83 
   109)        63.4  Rx         0084  8  00 00 00 7C C0 8F 9E 31 
   110)        63.6  Rx         0085  8  96 00 0D 65 14 60 00 E0 
   111)        64.4  Rx         0086  8  81 1B 8F 7B F1 7D 20 35 
   112)        64.7  Rx         0139  8  01 00 00 00 7F 7F 00 00 
   113)        64.9  Rx         01A3  8  FF 00 30 00 00 00 0D 7F 
   114)        65.2  Rx         01A6  8  FF FF 00 FF FF 00 00 00 
   115)        65.4  Rx         01A7  8  FF FF 00 FF FF 00 00 00 
   116)        66.2  Rx         0150  8  7E 00 08 00 85 01 05 43 
   117)        66.7  Rx         02A3  8  E7 00 FF 18 E7 00 03 FF 
   118)        68.6  Rx         00E0  8  FF 3B 00 E0 20 92 00 00 
   119)        69.9  Rx         01B0  8  05 20 50 01 00 00 09 B7 
   120)        71.7  Rx         00F9  8  30 00 FF FF FF FF FF FF 
   121)        72.0  Rx         00FA  8  0C FF FF FF FF FF FF FF 
   122)        72.8  Rx         0081  8  00 00 10 0D 53 00 00 00 
   123)        73.8  Rx         0084  8  00 00 00 7C C0 8F 9F 1E 
   124)        74.1  Rx         0085  8  96 00 0D 5E EB 60 00 F0 
   125)        74.3  Rx         0086  8  81 1B 8F 7B F1 7D 20 35 
   126)        74.5  Rx         01A2  8  80 05 00 80 90 06 02 E9 
   127)        74.8  Rx         0113  8  00 00 50 00 AA 09 08 D3 
   128)        75.8  Rx         02F1  8  20 4A FF FF FF 3F 6B 00 
   129)        76.1  Rx         02F2  8  00 04 12 0A 0A 00 00 00 
   130)        78.6  Rx         00E0  8  FF 3B 00 E0 30 72 00 00 
   131)        79.8  Rx         0191  8  00 00 81 20 00 80 0C ED 
   132)        81.1  Rx         0122  8  00 00 00 00 00 00 0D AE 
   133)        81.7  Rx         02AE  8  01 00 00 00 00 00 60 00 
   134)        81.9  Rx         0123  8  00 00 00 00 00 00 0D AE 
   135)        82.2  Rx         0124  8  00 00 00 00 00 00 D0 C1 
   136)        82.8  Rx         0081  8  00 00 10 0D 53 00 00 00 
   137)        83.1  Rx         0125  8  00 00 01 08 00 40 0D AC 
   138)        83.4  Rx         0084  8  00 00 00 7C C0 8F 90 84 
   139)        83.6  Rx         0085  8  96 00 0D 58 FC 60 00 00 
   140)        84.4  Rx         0086  8  81 1B 8F 7B F1 7D 20 35 
   141)        86.0  Rx         0150  8  7E 00 08 00 45 01 06 0E 
   142)        86.7  Rx         02D0  8  00 00 00 00 00 00 00 00 
   143)        86.9  Rx         02A8  8  00 00 00 00 00 00 50 22 
   144)        88.7  Rx         00E0  8  FF 3B 00 E0 40 8C 00 00 
   145)        89.8  Rx         01B0  8  05 20 50 01 00 00 0A C6 
   146)        90.1  Rx         01B2  8  13 00 2B 3F 00 00 00 00 
   147)        91.2  Rx         01F0  8  00 08 00 00 05 05 0A 97 
   148)        91.6  Rx         01F2  8  B1 AD AA B1 2E 2C 2E 2D 
   149)        91.9  Rx         00F9  8  30 00 FF FF FF FF FF FF 
   150)        92.1  Rx         00FA  8  0C FF FF FF FF FF FF FF 
   151)        93.3  Rx         0081  8  00 00 10 0D 53 00 00 00 
   152)        93.5  Rx         0084  8  00 00 00 7C C0 8F 91 AB 
   153)        93.7  Rx         0086  8  81 1B 8F 7B F1 7D 30 35 
   154)        94.0  Rx         0085  8  96 00 0D 55 56 60 00 10 
   155)        94.2  Rx         0284  8  00 20 40 40 00 30 00 00 
   156)        94.4  Rx         0287  8  00 00 00 00 42 10 01 21 
   157)        94.7  Rx         028B  8  00 00 00 00 00 00 00 00 
   158)        95.0  Rx         0370  8  0F 00 00 00 00 00 00 00 
   159)        95.2  Rx         0113  8  00 00 50 00 AA 09 09 FC 
   160)        95.4  Rx         01A2  8  80 05 00 80 A0 06 02 E6 
   161)        96.5  Rx         02C1  8  00 00 00 00 00 00 00 00 
   162)        96.8  Rx         02AD  8  00 00 00 00 00 00 00 00 
   163)        98.6  Rx         00E0  8  FF 3B 00 E0 50 6C 00 00 
   164)        99.8  Rx         0191  8  00 00 81 20 00 80 0D C2 
   165)       101.1  Rx         0122  8  00 00 00 00 00 00 0E DF 
   166)       101.7  Rx         02A2  8  00 00 00 00 00 00 00 00 
   167)       102.0  Rx         0123  8  00 00 00 00 00 00 0E DF 
   168)       102.2  Rx         0124  8  00 00 00 00 00 00 E0 1C 
   169)       102.5  Rx         0125  8  00 00 01 08 00 40 0E DD 
   170)       103.1  Rx         02FC  8  0A 00 00 00 00 00 40 00 
   171)       103.4  Rx         0081  8  00 00 10 0D 53 00 00 00 
   172)       103.7  Rx         0084  8  00 00 00 7C C0 8F 92 DA 
   173)       103.9  Rx         0086  8  81 1B 8F 7B F1 7D 30 35 
   174)       104.1  Rx         0085  8  96 00 0D 55 8B 60 00 20 
   175)       105.6  Rx         02D2  8  00 BE 20 00 00 00 00 00 
   176)       106.1  Rx         0150  8  7E 00 08 00 45 01 07 21 
   177)       106.7  Rx         02A9  8  00 00 00 00 00 00 00 00 
   178)       107.6  Rx         02FB  8  00 00 07 CC 46 50 07 C1 
   179)       108.7  Rx         00E0  8  FF 3B 00 E0 60 63 00 00 
   180)       109.0  Rx         0281  8  00 03 00 01 00 00 07 EE 
   181)       109.3  Rx         02C3  8  00 00 00 00 00 00 00 00 
   182)       109.7  Rx         01B0  8  05 20 50 01 00 00 0B E9 
   183)       111.5  Rx         0286  8  01 40 01 40 00 00 00 00 
   184)       111.7  Rx         00F9  8  30 00 FF FF FF FF FF FF 
   185)       112.0  Rx         00FA  8  0C FF FF FF FF FF FF FF 
   186)       112.2  Rx         012F  8  00 3F 00 00 00 00 00 00 
   187)       112.5  Rx         02AA  8  00 00 00 00 00 00 00 00 
   188)       112.9  Rx         02FD  8  00 00 00 00 00 00 00 00 
   189)       113.3  Rx         0081  8  00 00 10 0D 53 00 00 00 
   190)       113.6  Rx         0084  8  00 00 00 7C C0 8F 93 F5 
   191)       113.8  Rx         0085  8  96 00 0D 5C AB 60 00 30 
   192)       114.1  Rx         0086  8  81 1B 90 7B F1 7D 30 35 
   193)       114.8  Rx         0113  8  00 00 50 00 AA 09 0A 8D 
   194)       115.1  Rx         0139  8  01 00 00 00 7F 7F 00 00 
   195)       115.3  Rx         0285  8  01 40 01 40 00 00 00 00 
   196)       115.5  Rx         01A2  8  80 05 00 80 B0 06 02 06 
   197)       115.8  Rx         01A3  8  FF 00 30 00 00 00 0E 0E 
   198)       116.0  Rx         01A6  8  FF FF 00 FF FF 00 00 00 
   199)       116.3  Rx         01A7  8  FF FF 00 FF FF 00 00 00 
   200)       116.5  Rx         0288  8  80 00 00 37 00 11 00 00 
   201)       116.8  Rx         028A  8  B4 00 02 00 F0 5B 05 4D 
   202)       117.0  Rx         028C  8  00 F0 00 00 00 00 00 00 
   203)       117.3  Rx         02AC  8  00 00 00 00 00 00 00 00 
   204)       117.5  Rx         0260  8  00 00 00 00 00 00 1A A8 
   205)       118.7  Rx         00E0  8  FF 3B 00 E0 70 83 00 00 
   206)       120.0  Rx         0191  8  00 00 81 20 00 80 0E B3 
   207)       120.5  Rx         02AB  8  01 80 00 00 00 03 00 00 
   208)       120.9  Rx         02CA  8  71 10 08 00 00 00 00 00 
   209)       121.8  Rx         0122  8  00 00 00 00 00 00 0F F0 
   210)       122.0  Rx         0123  8  00 00 00 00 00 00 0F F0 
   211)       122.8  Rx         0081  8  00 00 10 0D 53 00 00 00 
   212)       123.0  Rx         0124  8  00 00 00 00 00 00 F0 B2 
   213)       123.3  Rx         0125  8  00 00 01 08 00 40 0F F2 
   214)       123.5  Rx         0294  8  01 00 00 00 00 00 00 00 
   215)       123.8  Rx         0084  8  00 00 00 7C C0 8F A4 E5 
   216)       124.0  Rx         0085  8  96 00 0D 5E D5 60 00 40 
   217)       124.2  Rx         0086  8  81 1A 90 7B F1 7D 30 35 
   218)       124.5  Rx         026D  8  00 4D 0D 04 1A 00 00 00 
   219)       126.2  Rx         0150  8  7E 00 08 00 45 01 08 BB 
   220)       128.6  Rx         00E0  8  FF 3B 00 E0 80 B0 00 00 
   221)       130.0  Rx         01B0  8  05 20 50 01 00 00 0C 24 
   222)       131.7  Rx         00F9  8  30 00 FF FF FF FF FF FF 
   223)       131.9  Rx         00FA  8  0C FF FF FF FF FF FF FF 
   224)       132.2  Rx         02B3  8  C1 00 00 00 00 00 00 00 
   225)       132.5  Rx         02B6  8  00 00 00 00 00 00 00 00 
   226)       132.7  Rx         0380  8  13 F0 9E 00 00 00 00 00 
   227)       133.0  Rx         0081  8  00 00 10 0D 53 00 00 00 
   228)       133.6  Rx         03F6  8  00 01 FF 00 00 1F F3 44 
   229)       133.9  Rx         0084  8  00 00 00 7C C0 8F A5 CA 
   230)       134.1  Rx         0085  8  96 00 0D 5D 8B 60 00 50 
   231)       134.4  Rx         0086  8  81 1A 90 7B F1 7D 30 35 
   232)       134.6  Rx         01A2  8  80 05 00 80 C0 06 02 F8 
   233)       134.9  Rx         0113  8  00 00 50 00 AA 09 0B A2 
   234)       135.1  Rx         0218  8  3D 00 00 00 00 00 0F 89 
   235)       136.6  Rx         03E1  8  00 00 00 00 00 00 03 1B 
   236)       136.9  Rx         03E2  8  00 00 00 00 00 00 03 1B 
   237)       138.6  Rx         00E0  8  FF 3B 00 E0 90 50 00 00 
   238)       139.8  Rx         0191  8  00 00 81 20 00 80 0F 9C 
   239)       140.1  Rx         01B2  8  13 00 2B 3F 00 00 00 00 
   240)       141.0  Rx         01F0  8  00 08 00 00 05 05 0B B8 
   241)       141.2  Rx         0122  8  00 00 00 00 00 00 00 6A 
   242)       141.7  Rx         01F2  8  B1 AD AA B1 2E 2C 2E 2D 
   243)       141.9  Rx         0123  8  00 00 00 00 00 00 00 6A 
   244)       142.1  Rx         0124  8  00 00 00 00 00 00 00 6A 
   245)       142.8  Rx         0081  8  00 00 10 0D 53 00 00 00 
   246)       143.1  Rx         0125  8  00 00 01 08 00 40 00 68 
   247)       143.3  Rx         0084  8  00 00 00 7C C0 8F A6 BB 
   248)       144.2  Rx         0085  8  96 00 0D 5C E3 60 00 60 
   249)       144.5  Rx         0086  8  81 1A 90 7B F1 7D 30 35 
   250)       146.0  Rx         0150  8  7E 00 08 00 85 01 09 A8 
   251)       146.7  Rx         02A0  8  00 00 00 00 00 00 00 00 
   252)       146.9  Rx         02A1  8  00 00 00 7F 7F 7F 7F 7F 
   253)       147.1  Rx         02A4  8  00 80 00 00 18 03 28 00 
   254)       147.4  Rx         02B4  8  00 00 00 00 00 00 00 00 
   255)       148.7  Rx         00E0  8  FF 3B 00 E0 A0 5F 00 00 
   256)       150.0  Rx         01B0  8  05 20 50 01 00 00 0D 0B 
   257)       150.3  Rx         02E0  8  A1 00 20 00 00 00 0C 41 
   258)       151.7  Rx         02A5  8  00 0F 07 1F 1F 00 00 00 
   259)       151.9  Rx         00F9  8  30 00 FF FF FF FF FF FF 
   260)       152.2  Rx         00FA  8  0C FF FF FF FF FF FF FF 
   261)       152.8  Rx         0407  8  07 10 05 01 10 00 00 00 
   262)       153.1  Rx         0081  8  00 00 10 0D 53 00 00 00 
   263)       153.3  Rx         0084  8  00 00 00 7C C0 8F A7 94 
   264)       154.0  Rx         0085  8  96 00 0D 5C 4D 60 00 70 
   265)       154.3  Rx         0086  8  81 1A 90 7B F1 7D 30 35 
   266)       154.5  Rx         01A2  8  80 05 00 80 D0 06 02 18 
   267)       154.7  Rx         0113  8  00 00 50 00 AA 09 0C 6F 
   268)       156.7  Rx         02A6  8  00 00 00 00 00 00 00 7F 
   269)       158.6  Rx         00E0  8  FF 3B 00 E0 B0 BF 00 00 
   270)       159.8  Rx         0191  8  00 00 81 20 00 80 00 06 
   271)       161.1  Rx         0122  8  00 00 00 00 00 00 01 45 
   272)       161.6  Rx         02C8  8  00 80 05 00 00 00 00 00 
   273)       161.9  Rx         0123  8  00 00 00 00 00 00 01 45 
   274)       162.1  Rx         0124  8  00 00 00 00 00 00 10 C4 
   275)       162.3  Rx         02A7  8  00 00 00 00 00 00 00 00 
   276)       162.9  Rx         0081  8  00 00 10 0D 53 00 00 00 
   277)       163.1  Rx         0125  8  00 00 01 08 00 40 01 47 
   278)       163.4  Rx         0084  8  00 00 00 7C C0 8F A8 0E 
   279)       163.7  Rx         0085  8  96 00 0D 5E D0 60 00 80 
   280)       164.4  Rx         0086  8  81 1A 8F 7B F1 7D 30 35 
   281)       164.7  Rx         0139  8  01 00 00 00 7F 7F 00 00 
   282)       164.9  Rx         01A3  8  FF 00 30 00 00 00 0F 21 
   283)       165.1  Rx         01A6  8  FF FF 00 FF FF 00 00 00 
   284)       165.4  Rx         01A7  8  FF FF 00 FF FF 00 00 00 
   285)       166.3  Rx         0150  8  7E 00 08 00 45 01 0A E5 
   286)       166.7  Rx         02A3  8  E7 00 FF 18 E7 00 03 FF 
   287)       168.6  Rx         00E0  8  FF 3B 00 E0 C0 41 00 00 
   288)       169.5  Rx         0402  8  02 00 02 01 02 00 00 00 
   289)       169.9  Rx         01B0  8  05 20 50 01 00 00 0E 7A 
   290)       171.7  Rx         00F9  8  30 00 FF FF FF FF FF FF 
   291)       172.0  Rx         00FA  8  0C FF FF FF FF FF FF FF 
   292)       172.8  Rx         0081  8  00 00 10 0D 53 00 00 00 
   293)       173.8  Rx         0084  8  00 00 00 7C C0 8F A9 21 
   294)       174.1  Rx         0085  8  96 00 0D 62 55 60 00 90 
   295)       174.3  Rx         0086  8  81 1A 8F 7B F1 7D 30 35 
   296)       174.5  Rx         01A2  8  80 05 00 80 E0 06 02 17 
   297)       174.8  Rx         0113  8  00 00 50 00 AA 09 0D 40 
   298)       175.9  Rx         02F1  8  20 4A FF FF FF 3F 6B 00 
   299)       176.2  Rx         02F2  8  00 04 12 0A 0A 00 00 00 
   300)       177.0  Rx         0374  8  00 00 00 00 00 00 00 00 
   301)       178.6  Rx         00E0  8  FF 3B 00 E0 D0 A1 00 00 
   302)       180.0  Rx         0191  8  00 00 81 20 00 80 01 29 
   303)       181.7  Rx         02AE  8  01 00 00 00 00 00 60 00 
   304)       182.0  Rx         0122  8  00 00 00 00 00 00 02 34 
   305)       182.2  Rx         0123  8  00 00 00 00 00 00 02 34 
   306)       182.4  Rx         0124  8  00 00 00 00 00 00 20 19 
   307)       183.0  Rx         0081  8  00 00 10 0D 53 00 00 00 
   308)       183.2  Rx         0125  8  00 00 01 08 00 40 02 36 
   309)       183.4  Rx         0084  8  00 00 00 7C C0 8F AA 50 
   310)       183.7  Rx         0085  8  96 00 0D 65 F2 60 00 A0 
   311)       184.5  Rx         0086  8  81 1A 8F 7B F1 7D 20 35 
   312)       186.2  Rx         0150  8  7E 00 08 00 45 01 0B CA 
   313)       186.7  Rx         02D0  8  00 00 00 00 00 00 00 00 
   314)       186.9  Rx         02A8  8  00 00 00 00 00 00 60 FF 
   315)       188.7  Rx         00E0  8  FF 3B 00 E0 E0 AE 00 00 
   316)       189.7  Rx         01B0  8  05 20 50 01 00 00 0F 55 
   317)       189.9  Rx         01B2  8  13 00 2B 3F 00 00 00 00 
   318)       190.9  Rx         01F0  8  00 08 00 00 05 05 0C 75 
   319)       191.4  Rx         01F2  8  B1 AD AA B1 2E 2C 2E 2D 
   320)       191.7  Rx         00F9  8  30 00 FF FF FF FF FF FF 
   321)       191.9  Rx         00FA  8  0C FF FF FF FF FF FF FF 
   322)       192.2  Rx         0284  8  00 20 40 40 00 30 00 00 
   323)       193.2  Rx         0081  8  00 00 10 0D 53 00 00 00 
   324)       193.5  Rx         0084  8  00 00 00 7C C0 8F AB 7F 
   325)       193.7  Rx         0085  8  96 00 0D 66 AC 60 00 B0 
   326)       193.9  Rx         0287  8  00 00 00 00 42 10 01 21 
   327)       194.2  Rx         0086  8  81 1A 8F 7B F1 7D 20 35 
   328)       194.4  Rx         028B  8  00 00 00 00 00 00 00 00 
   329)       194.9  Rx         0113  8  00 00 50 00 AA 09 0E 31 
   330)       195.1  Rx         01A2  8  80 05 00 80 F0 06 02 F7 
   331)       196.5  Rx         02C1  8  00 00 00 00 00 00 00 00 
   332)       196.8  Rx         02AD  8  00 00 00 00 00 00 00 00 
   333)       198.6  Rx         00E0  8  FF 3B 00 E0 F0 4E 00 00 
   334)       199.9  Rx         0191  8  00 00 81 20 00 80 02 58 
   335)       201.2  Rx         0122  8  00 00 00 00 00 00 03 1B 
   336)       201.7  Rx         02A2  8  00 00 00 00 00 00 00 00 
   337)       202.0  Rx         0123  8  00 00 00 00 00 00 03 1B 
   338)       202.2  Rx         0124  8  00 00 00 00 00 00 30 B7 
   339)       202.9  Rx         02FC  8  0A 00 00 00 00 00 40 00 
   340)       203.3  Rx         0081  8  00 00 10 0D 53 00 00 00 
   341)       203.5  Rx         0084  8  00 00 00 7C C0 8F AC B2 
   342)       203.8  Rx         0085  8  96 00 0D 66 97 60 00 C0 
   343)       204.0  Rx         0086  8  81 1A 8F 7B F1 7D 20 35 
   344)       204.2  Rx         0125  8  00 00 01 08 00 40 03 19 
   345)       205.5  Rx         02D2  8  00 BE 20 00 00 00 00 00 
   346)       206.1  Rx         0150  8  7E 00 08 00 45 01 0C 07 
   347)       206.7  Rx         02A9  8  00 00 00 00 00 00 00 00 
   348)       207.6  Rx         02FB  8  00 00 07 CC 46 50 07 C1 
   349)       208.7  Rx         00E0  8  FF 3B 00 E0 00 7D 00 00 
   350)       209.0  Rx         0281  8  00 03 00 01 00 00 08 74 
   351)       209.3  Rx         02C3  8  00 00 00 00 00 00 00 00 
   352)       210.0  Rx         01B0  8  05 20 50 01 00 00 00 CF 
   353)       211.5  Rx         0286  8  01 40 01 40 00 00 00 00 
   354)       211.7  Rx         00F9  8  30 00 FF FF FF FF FF FF 
   355)       212.0  Rx         00FA  8  0C FF FF FF FF FF FF FF 
   356)       212.2  Rx         012F  8  00 3F 00 00 00 00 00 00 
   357)       212.5  Rx         02AA  8  00 00 00 00 00 00 00 00 
   358)       212.9  Rx         02FD  8  00 00 00 00 00 00 00 00 
   359)       213.4  Rx         0081  8  00 00 10 0D 53 00 00 00 
   360)       213.6  Rx         0084  8  00 00 00 7C C0 8F AD 9D 
   361)       213.9  Rx         0085  8  97 00 0D 5C 29 60 00 D0 
   362)       214.1  Rx         0086  8  81 1A 8F 7B F1 7D 20 35 
   363)       214.9  Rx         0113  8  00 00 50 00 AA 09 0F 1E 
   364)       215.1  Rx         0139  8  01 00 00 00 7F 7F 00 00 
   365)       215.4  Rx         0285  8  01 40 01 40 00 00 00 00 
   366)       215.6  Rx         01A2  8  80 05 00 80 00 06 02 C4 
   367)       215.8  Rx         01A3  8  FF 00 30 00 00 00 00 BB 
   368)       216.1  Rx         01A6  8  FF FF 00 FF FF 00 00 00 
   369)       216.3  Rx         01A7  8  FF FF 00 FF FF 00 00 00 
   370)       216.6  Rx         0288  8  80 00 00 37 00 11 00 00 
   371)       216.8  Rx         028A  8  B4 00 02 00 F0 5B 06 3C 
   372)       217.1  Rx         028C  8  00 F0 00 00 00 00 00 00 
   373)       217.3  Rx         02AC  8  00 00 00 00 00 00 00 00 
   374)       217.6  Rx         0260  8  00 00 00 00 00 00 1A A8 
   375)       217.8  Rx         0386  8  5B 00 8E 7E 64 00 88 0A 
   376)       218.0  Rx         03F8  8  10 00 64 2C 80 00 00 00 
   377)       218.7  Rx         00E0  8  FF 3B 00 E0 10 9D 00 00 
   378)       219.8  Rx         0191  8  00 00 81 20 00 80 03 77 
   379)       221.1  Rx         0122  8  00 00 00 00 00 00 04 D6 
   380)       221.9  Rx         0123  8  00 00 00 00 00 00 04 D6 
   381)       222.1  Rx         0124  8  00 00 00 00 00 00 40 8C 
   382)       222.8  Rx         0081  8  00 00 10 0D 53 00 00 00 
   383)       223.1  Rx         0125  8  00 00 01 08 00 40 04 D4 
   384)       223.3  Rx         0294  8  01 00 00 00 00 00 00 00 
   385)       223.6  Rx         0084  8  00 00 00 7C C0 8F AE EC 
   386)       223.8  Rx         0085  8  97 00 0D 53 B5 60 00 E0 
   387)       224.1  Rx         026D  8  00 4D 0D 04 1A 00 00 00 
   388)       224.5  Rx         0086  8  81 1A 8F 7B F1 7D 20 35 
   389)       226.4  Rx         0150  8  7E 00 08 00 45 01 0D 28 
   390)       228.6  Rx         00E0  8  FF 3B 00 E0 20 92 00 00 
   391)       230.0  Rx         01B0  8  05 20 50 01 00 00 01 E0 
   392)       230.9  Rx         0419  8  19 00 01 01 02 00 00 00 
   393)       231.7  Rx         00F9  8  30 00 FF FF FF FF FF FF 
   394)       232.0  Rx         00FA  8  0C FF FF FF FF FF FF FF 
   395)       232.2  Rx         02B3  8  C1 00 00 00 00 00 00 00 
   396)       232.5  Rx         02B6  8  00 00 00 00 00 00 00 00 
   397)       232.9  Rx         0081  8  00 00 10 0D 53 00 00 00 
   398)       233.9  Rx         0084  8  00 00 00 7C C0 8F AF C3 
   399)       234.1  Rx         0085  8  97 00 0D 50 EB 60 00 F0 
   400)       234.3  Rx         0086  8  81 1A 8F 7B F1 7D 30 35 
   401)       234.6  Rx         01A2  8  80 05 00 80 10 06 02 24 
   402)       234.8  Rx         0113  8  00 00 50 00 AA 09 00 84 
   403)       235.1  Rx         0218  8  3D 00 00 00 00 00 00 13 
   404)       238.6  Rx         00E0  8  FF 3B 00 E0 30 72 00 00 
   405)       240.1  Rx         0191  8  00 00 81 20 00 80 04 BA 
   406)       240.3  Rx         01B2  8  13 00 2B 3F 00 00 00 00 
   407)       240.9  Rx         01F0  8  00 08 00 00 05 05 0D 5A 
   408)       241.2  Rx         0122  8  00 00 00 00 00 00 05 F9 
   409)       241.6  Rx         01F2  8  B1 AD AA B1 2E 2C 2E 2D 
   410)       241.9  Rx         0123  8  00 00 00 00 00 00 05 F9 
   411)       242.1  Rx         0124  8  00 00 00 00 00 00 50 22 
   412)       242.8  Rx         0081  8  00 00 10 0D 53 00 00 00 
   413)       243.1  Rx         0125  8  00 00 01 08 00 40 05 FB 
   414)       243.3  Rx         0084  8  00 00 00 7C C0 8F 90 84 
   415)       244.2  Rx         0085  8  97 00 0D 4D 41 60 00 00 
   416)       244.4  Rx         0086  8  81 1B 8F 7B F1 7D 20 35 
   417)       246.3  Rx         0150  8  7E 00 08 00 45 01 0E 59 
   418)       246.7  Rx         02A0  8  00 00 00 00 00 00 00 00 
   419)       246.9  Rx         02A1  8  00 00 00 7F 7F 7F 7F 7F 
   420)       247.1  Rx         02A4  8  00 80 00 00 18 03 28 00 
   421)       247.4  Rx         02B4  8  00 00 00 00 00 00 00 00 
   422)       248.7  Rx         00E0  8  FF 3B 00 E0 40 8C 00 00 
   423)       249.7  Rx         01B0  8  05 20 50 01 00 00 02 91 
   424)       250.0  Rx         02E0  8  A1 00 20 00 00 00 0D 6E 
   425)       251.7  Rx         02A5  8  00 0F 07 1F 1F 00 00 00 
   426)       251.9  Rx         00F9  8  30 00 FF FF FF FF FF FF 
   427)       252.2  Rx         00FA  8  0C FF FF FF FF FF FF FF 
   428)       252.9  Rx         0081  8  00 00 10 0D 53 00 00 00 
   429)       253.1  Rx         0084  8  00 00 00 7C C0 8F 91 AB 
   430)       254.0  Rx         0085  8  97 00 0D 4A 95 60 00 10 
   431)       254.2  Rx         0086  8  81 1B 90 7B F1 7D 30 35 
   432)       254.4  Rx         01A2  8  80 05 00 80 20 06 02 2B 
   433)       254.7  Rx         0113  8  00 00 50 00 AA 09 01 AB 
   434)       256.7  Rx         02A6  8  00 00 00 00 00 00 00 7F 
   435)       258.6  Rx         00E0  8  FF 3B 00 E0 50 6C 00 00 
   436)       259.8  Rx         0191  8  00 00 81 20 00 80 05 95 
   437)       261.1  Rx         0122  8  00 00 00 00 00 00 06 88 
   438)       261.6  Rx         02C8  8  00 80 05 00 00 00 00 00 
   439)       261.8  Rx         0123  8  00 00 00 00 00 00 06 88 
   440)       262.1  Rx         0124  8  00 00 00 00 00 00 60 FF 
   441)       262.3  Rx         02A7  8  00 00 00 00 00 00 00 00 
   442)       262.9  Rx         0081  8  00 00 10 0D 53 00 00 00 
   443)       263.1  Rx         0125  8  00 00 01 08 00 40 06 8A 
   444)       263.4  Rx         0084  8  00 00 00 7C C0 8F 92 DA 
   445)       263.7  Rx         0085  8  97 00 0D 46 F9 60 00 20 
   446)       263.9  Rx         0086  8  81 1B 90 7C 01 7D 30 35 
   447)       264.2  Rx         01A3  8  FF 00 30 00 00 00 01 94 
   448)       264.8  Rx         0139  8  01 00 00 00 7F 7F 00 00 
   449)       265.0  Rx         01A6  8  FF FF 00 FF FF 00 00 00 
   450)       265.3  Rx         01A7  8  FF FF 00 FF FF 00 00 00 
   451)       266.3  Rx         0150  8  7E 00 08 00 45 01 0F 76 
   452)       266.7  Rx         02A3  8  E7 00 FF 18 E7 00 03 FF 
   453)       268.6  Rx         00E0  8  FF 3B 00 E0 60 63 00 00 
   454)       270.0  Rx         01B0  8  05 20 50 01 00 00 03 BE 
   455)       271.7  Rx         00F9  8  30 00 FF FF FF FF FF FF 
   456)       272.0  Rx         00FA  8  0C FF FF FF FF FF FF FF 
   457)       272.8  Rx         0081  8  00 00 10 0D 53 00 00 00 
   458)       273.9  Rx         0084  8  00 00 00 7C C0 8F 93 F5 
   459)       274.1  Rx         0085  8  97 00 0D 3F B4 60 00 30 
   460)       274.3  Rx         0086  8  81 1B 90 7C 01 7D 40 35 
   461)       274.5  Rx         01A2  8  80 05 00 80 30 06 02 CB 
   462)       274.8  Rx         0113  8  00 00 50 00 AA 09 02 DA 
   463)       275.9  Rx         02F1  8  20 4A FF FF FF 3F 6B 00 
   464)       276.1  Rx         02F2  8  00 04 12 0A 0A 00 00 00 
   465)       278.6  Rx         00E0  8  FF 3B 00 E0 70 83 00 00 
   466)       280.0  Rx         0191  8  00 00 81 20 00 80 06 E4 
   467)       281.1  Rx         0122  8  00 00 00 00 00 00 07 A7 
   468)       281.7  Rx         02AE  8  01 00 00 00 00 00 60 00 
   469)       282.0  Rx         0123  8  00 00 00 00 00 00 07 A7 
   470)       282.2  Rx         0124  8  00 00 00 00 00 00 70 51 
   471)       282.9  Rx         0081  8  00 00 10 0D 53 00 00 00 
   472)       283.1  Rx         0125  8  00 00 01 08 00 40 07 A5 
   473)       283.3  Rx         0084  8  00 00 00 7C D0 8F 94 D8 
   474)       283.6  Rx         0085  8  97 00 0D 3C 7F 60 00 40 
   475)       284.4  Rx         0086  8  81 1B 90 7C 01 7D 40 35 
   476)       286.1  Rx         0150  8  7E 00 08 00 45 01 00 EC 
   477)       286.7  Rx         02D0  8  00 00 00 00 00 00 00 00 
   478)       287.0  Rx         02A8  8  00 00 00 00 00 00 70 51 
   479)       288.7  Rx         00E0  8  FF 3B 00 E0 80 B0 00 00 
   480)       289.8  Rx         01B0  8  05 20 50 01 00 00 04 73 
   481)       290.1  Rx         01B2  8  13 00 2B 3F 00 00 00 00 
   482)       290.9  Rx         01F0  8  00 08 00 00 05 05 0E 2B 
   483)       291.4  Rx         01F2  8  B1 AD AA B1 2E 2C 2E 2D 
   484)       291.7  Rx         00F9  8  30 00 FF FF FF FF FF FF 
   485)       291.9  Rx         00FA  8  0C FF FF FF FF FF FF FF 
   486)       292.2  Rx         0284  8  00 20 40 40 00 30 00 00 
   487)       293.2  Rx         0081  8  00 00 10 0D 53 00 00 00 
   488)       293.4  Rx         0084  8  00 00 00 7C D0 8F 95 F7 
   489)       293.7  Rx         0086  8  81 1B 91 7C 01 7D 40 35 
   490)       293.9  Rx         0085  8  97 00 0D 3E 94 60 00 50 
   491)       294.2  Rx         0287  8  00 00 00 00 42 10 01 21 
   492)       294.4  Rx         028B  8  00 00 00 00 00 00 00 00 
   493)       294.9  Rx         0113  8  00 00 50 00 AA 09 03 F5 
   494)       295.1  Rx         01A2  8  80 05 00 80 40 06 02 35 
   495)       296.5  Rx         02C1  8  00 00 00 00 00 00 00 00 
   496)       296.8  Rx         02AD  8  00 00 00 00 00 00 00 00 
   497)       298.6  Rx         00E0  8  FF 3B 00 E0 90 50 00 00 
   498)       299.8  Rx         0191  8  00 00 81 20 00 80 07 CB 
   499)       301.1  Rx         0122  8  00 00 00 00 00 00 08 3D 
   500)       301.7  Rx         02A2  8  00 00 00 00 00 00 00 00 
   501)       302.0  Rx         0123  8  00 00 00 00 00 00 08 3D 
   502)       302.2  Rx         0124  8  00 00 00 00 00 00 80 89 
   503)       302.5  Rx         0125  8  00 00 01 08 00 40 08 3F 
   504)       303.0  Rx         02FC  8  0A 00 00 00 00 00 40 00 
   505)       303.4  Rx         0081  8  00 00 10 0D 53 00 00 00 
   506)       303.6  Rx         0084  8  00 00 00 7C D0 8F 96 86 
   507)       303.9  Rx         0085  8  97 00 0D 3F FC 60 00 60 
   508)       304.1  Rx         0086  8  81 1B 91 7C 01 7D 40 35 
   509)       305.5  Rx         02D2  8  00 BE 20 00 00 00 00 00 
   510)       306.1  Rx         0150  8  7E 00 08 00 45 01 01 C3 
   511)       306.8  Rx         02A9  8  00 00 00 00 00 00 00 00 
   512)       307.6  Rx         02FB  8  00 00 07 CC 46 50 07 BF 
   513)       308.8  Rx         00E0  8  FF 3B 00 E0 A0 5F 00 00 
   514)       309.0  Rx         0281  8  00 03 00 01 00 00 09 5B 
   515)       309.3  Rx         02C3  8  00 00 00 00 00 00 00 00 
   516)       309.8  Rx         01B0  8  05 20 50 01 00 00 05 5C 
   517)       311.5  Rx         0286  8  01 40 01 40 00 00 00 00 
   518)       311.7  Rx         00F9  8  30 00 FF FF FF FF FF FF 
   519)       312.0  Rx         00FA  8  0C FF FF FF FF FF FF FF 
   520)       312.2  Rx         012F  8  00 3F 00 00 00 00 00 00 
   521)       312.5  Rx         02AA  8  00 00 00 00 00 00 00 00 
   522)       312.9  Rx         02FD  8  00 00 00 00 00 00 00 00 
   523)       313.4  Rx         0081  8  00 00 10 0D 53 00 00 00 
   524)       313.6  Rx         0084  8  00 00 00 7C D0 8F 97 A9 
   525)       313.8  Rx         0086  8  81 1B 91 7C 01 7D 40 35 
   526)       314.0  Rx         0085  8  97 00 0D 3F 52 60 00 70 
   527)       314.9  Rx         0113  8  00 00 50 00 AA 09 04 38 
   528)       315.1  Rx         0139  8  01 00 00 00 7F 7F 00 00 
   529)       315.3  Rx         0285  8  01 40 01 40 00 00 00 00 
   530)       315.6  Rx         01A2  8  80 05 00 80 50 06 02 D5 
   531)       315.8  Rx         01A3  8  FF 00 30 00 00 00 02 E5 
   532)       316.1  Rx         01A6  8  FF FF 00 FF FF 00 00 00 
   533)       316.3  Rx         01A7  8  FF FF 00 FF FF 00 00 00 
   534)       316.6  Rx         0288  8  80 00 00 37 00 11 00 00 
   535)       316.8  Rx         028A  8  B3 00 02 00 F0 5B 07 81 
   536)       317.0  Rx         028C  8  00 F0 00 00 00 00 00 00 
   537)       317.3  Rx         02AC  8  00 00 00 00 00 00 00 00 
   538)       317.5  Rx         0260  8  00 00 00 00 00 00 1A A8 
   539)       318.7  Rx         00E0  8  FF 3B 00 E0 B0 BF 00 00 
   540)       320.0  Rx         0191  8  00 00 81 20 00 80 08 51 
   541)       320.5  Rx         02AB  8  01 80 00 00 00 03 00 00 
   542)       320.9  Rx         02CA  8  71 10 08 00 00 00 00 00 
   543)       321.8  Rx         0122  8  00 00 00 00 00 00 09 12 
   544)       322.0  Rx         0123  8  00 00 00 00 00 00 09 12 
   545)       322.8  Rx         0081  8  00 00 10 0D 53 00 00 00 
   546)       323.1  Rx         0124  8  00 00 00 00 00 00 90 27 
   547)       323.3  Rx         0125  8  00 00 01 08 00 40 09 10 
   548)       323.6  Rx         0294  8  01 00 00 00 00 00 00 00 
   549)       323.8  Rx         0084  8  00 00 00 7C C0 8F A8 0E 
   550)       324.0  Rx         0085  8  97 00 0D 43 56 60 00 80 
   551)       324.2  Rx         0086  8  81 1B 91 7C 01 7D 50 35 
   552)       324.5  Rx         026D  8  00 4D 0D 04 1A 00 00 00 
   553)       324.8  Rx         0390  8  48 00 00 00 00 00 00 00 
   554)       326.2  Rx         0150  8  7E 00 08 00 85 01 02 8E 
   555)       328.6  Rx         00E0  8  FF 3B 00 E0 C0 41 00 00 
   556)       330.0  Rx         01B0  8  05 20 50 01 00 00 06 2D 
   557)       331.7  Rx         00F9  8  30 00 FF FF FF FF FF FF 
   558)       332.0  Rx         00FA  8  0C FF FF FF FF FF FF FF 
   559)       332.2  Rx         02B3  8  C1 00 00 00 00 00 00 00 
   560)       332.5  Rx         02B6  8  00 00 00 00 00 00 00 00 
   561)       332.7  Rx         0380  8  13 00 83 00 00 00 00 00 
   562)       332.9  Rx         0081  8  00 00 10 0D 53 00 00 00 
   563)       333.6  Rx         03F6  8  00 01 FF 00 00 1F F4 89 
   564)       333.9  Rx         0084  8  00 00 00 7C C0 8F A9 21 
   565)       334.1  Rx         0085  8  97 00 0D 43 F8 60 00 90 
   566)       334.4  Rx         0086  8  81 1B 91 7C 01 7D 50 35 
   567)       334.6  Rx         01A2  8  80 05 00 80 60 06 02 DA 
   568)       334.8  Rx         0113  8  00 00 50 00 AA 09 05 17 
   569)       335.1  Rx         0218  8  3D 00 00 00 00 00 01 3C 
   570)       336.7  Rx         03E1  8  00 00 00 00 00 00 04 D6 
   571)       336.9  Rx         03E2  8  00 00 00 00 00 00 04 D6 
   572)       338.7  Rx         00E0  8  FF 3B 00 E0 D0 A1 00 00 
   573)       339.8  Rx         0191  8  00 00 81 20 00 80 09 7E 
   574)       340.0  Rx         01B2  8  13 00 2B 3F 00 00 00 00 
   575)       340.9  Rx         01F0  8  00 08 00 00 05 05 0F 04 
   576)       341.2  Rx         0122  8  00 00 00 00 00 00 0A 63 
   577)       341.6  Rx         01F2  8  B1 AD AA B1 2E 2C 2E 2D 
   578)       341.9  Rx         0123  8  00 00 00 00 00 00 0A 63 
   579)       342.1  Rx         0124  8  00 00 00 00 00 00 A0 FA 
   580)       342.8  Rx         0125  8  00 00 01 08 00 40 0A 61 
   581)       343.1  Rx         0081  8  00 00 10 0D 53 00 00 00 
   582)       344.0  Rx         0084  8  00 00 00 7C C0 8F AA 50 
   583)       344.3  Rx         0085  8  97 00 0D 44 5F 60 00 A0 
   584)       344.5  Rx         0086  8  81 1B 91 7C 01 7D 40 35 
   585)       346.0  Rx         0150  8  7E 00 08 00 45 01 03 9D 
   586)       346.6  Rx         02A0  8  00 00 00 00 00 00 00 00 
   587)       346.9  Rx         02A1  8  00 00 00 7F 7F 7F 7F 7F 
   588)       347.2  Rx         02A4  8  00 80 00 00 18 03 28 00 
   589)       347.4  Rx         02B4  8  00 00 00 00 00 00 00 00 
   590)       347.6  Rx         03F0  8  1A 16 0C 1B 01 18 00 02 
   591)       348.9  Rx         00E0  8  FF 3B 00 E0 E0 AE 00 00 
   592)       349.9  Rx         01B0  8  05 20 50 01 00 00 07 02 
   593)       350.2  Rx         02E0  8  A1 00 20 00 00 00 0E 1F 
   594)       351.7  Rx         02A5  8  00 0F 07 1F 1F 00 00 00 
   595)       351.9  Rx         00F9  8  30 00 FF FF FF FF FF FF 
   596)       352.2  Rx         00FA  8  0C FF FF FF FF FF FF FF 
   597)       352.9  Rx         0081  8  00 00 10 0D 53 00 00 00 
   598)       353.1  Rx         0084  8  00 00 00 7C C0 8F AB 7F 
   599)       353.6  Rx         03F1  8  01 90 4E 12 20 20 92 00 
   600)       354.2  Rx         0085  8  97 00 0D 44 F1 60 00 B0 
   601)       354.4  Rx         0086  8  81 1B 91 7C 01 7D 40 35 
   602)       354.6  Rx         0113  8  00 00 50 00 AA 09 06 66 
   603)       354.8  Rx         01A2  8  80 05 00 80 70 06 02 3A 
   604)       356.7  Rx         02A6  8  00 00 00 00 00 00 00 7F 
   605)       358.6  Rx         00E0  8  FF 3B 00 E0 F0 4E 00 00 
   606)       360.0  Rx         0191  8  00 00 81 20 00 80 0A 0F 
   607)       361.1  Rx         0122  8  00 00 00 00 00 00 0B 4C 
   608)       361.6  Rx         02C8  8  00 80 05 00 00 00 00 00 
   609)       361.8  Rx         0123  8  00 00 00 00 00 00 0B 4C 
   610)       362.1  Rx         0124  8  00 00 00 00 00 00 B0 54 
   611)       362.3  Rx         02A7  8  00 00 00 00 00 00 00 00 
   612)       362.9  Rx         0081  8  00 00 10 0D 53 00 00 00 
   613)       363.2  Rx         0125  8  00 00 01 08 00 40 0B 4E 
   614)       363.4  Rx         0084  8  00 00 00 7C C0 8F AC B2 
   615)       363.6  Rx         0085  8  97 00 0D 44 CA 60 00 C0 
   616)       363.9  Rx         0086  8  81 1A 8F 7C 01 7D 50 35 
   617)       364.6  Rx         0139  8  01 00 00 00 7F 7F 00 00 
   618)       364.9  Rx         01A3  8  FF 00 30 00 00 00 03 CA 
   619)       365.1  Rx         01A6  8  FF FF 00 FF FF 00 00 00 
   620)       365.3  Rx         01A7  8  FF FF 00 FF FF 00 00 00 
   621)       366.4  Rx         0150  8  7E 00 08 00 85 01 04 6C 
   622)       366.7  Rx         02A3  8  E7 00 FF 18 E7 00 03 FF 
   623)       366.9  Rx         03F7  8  FF F0 FF F8 FF F8 05 E6 
   624)       368.7  Rx         00E0  8  FF 3B 00 E0 00 7D 00 00 
   625)       369.9  Rx         01B0  8  05 20 50 01 00 00 08 98 
   626)       371.7  Rx         00F9  8  30 00 FF FF FF FF FF FF 
   627)       371.9  Rx         00FA  8  0C FF FF FF FF FF FF FF 
   628)       372.8  Rx         0081  8  00 00 10 0D 53 00 00 00 
   629)       373.9  Rx         0084  8  00 00 00 7C C0 8F AD 9D 
   630)       374.1  Rx         0085  8  97 00 0D 45 D1 60 00 D0 
   631)       374.3  Rx         0086  8  81 1A 8F 7C 01 7D 50 35 
   632)       374.5  Rx         01A2  8  80 05 00 80 80 06 02 09 
   633)       374.8  Rx         0113  8  00 00 50 00 AA 09 07 49 
   634)       375.9  Rx         02F1  8  20 4A FF FF FF 3F 6B 00 
   635)       376.1  Rx         02F2  8  00 04 12 0A 0A 00 00 00 
   636)       377.0  Rx         0374  8  00 00 00 00 00 00 00 00 
   637)       378.6  Rx         00E0  8  FF 3B 00 E0 10 9D 00 00 
   638)       380.0  Rx         0191  8  00 00 81 20 00 80 0B 20 
   639)       381.1  Rx         0122  8  00 00 00 00 00 00 0C 81 
   640)       381.7  Rx         02AE  8  01 00 00 00 00 00 60 00 
   641)       381.9  Rx         0123  8  00 00 00 00 00 00 0C 81 
   642)       382.2  Rx         0124  8  00 00 00 00 00 00 C0 6F 
   643)       382.8  Rx         0081  8  00 00 10 0D 53 00 00 00 
   644)       383.1  Rx         0125  8  00 00 01 08 00 40 0C 83 
   645)       383.3  Rx         0084  8  00 00 00 7C C0 8F AE EC 
   646)       384.2  Rx         0085  8  97 00 0D 48 08 60 00 E0 
   647)       384.4  Rx         0086  8  81 1A 8F 7C 01 7D 40 35 
   648)       386.1  Rx         0150  8  7E 00 08 00 45 01 05 7F 
   649)       386.7  Rx         02D0  8  00 00 00 00 00 00 00 00 
   650)       387.0  Rx         02A8  8  00 00 00 00 00 00 80 89 
   651)       388.7  Rx         00E0  8  FF 3B 00 E0 20 92 00 00 
   652)       389.7  Rx         01B0  8  05 20 50 01 00 00 09 B7 
   653)       390.0  Rx         01B2  8  13 00 2B 3F 00 00 00 00 
   654)       390.9  Rx         01F0  8  00 08 00 00 05 05 00 9E 
   655)       391.4  Rx         01F2  8  B1 AD AA B1 2E 2C 2E 2D 
   656)       391.7  Rx         00F9  8  30 00 FF FF FF FF FF FF 
   657)       392.0  Rx         00FA  8  0C FF FF FF FF FF FF FF 
   658)       392.2  Rx         0284  8  00 20 40 40 00 30 00 00 
   659)       393.2  Rx         0081  8  00 00 10 0D 53 00 00 00 
   660)       393.4  Rx         0084  8  00 00 00 7C C0 8F AF C3 
   661)       393.7  Rx         0086  8  81 1A 8F 7C 01 7D 40 35 
   662)       393.9  Rx         0085  8  97 00 0D 4B 56 60 00 F0 
   663)       394.2  Rx         0287  8  00 00 00 00 42 10 01 21 
   664)       394.5  Rx         028B  8  00 00 00 00 00 00 00 00 
   665)       394.9  Rx         0113  8  00 00 50 00 AA 09 08 D3 
   666)       395.2  Rx         01A2  8  80 05 00 80 90 06 02 E9 
   667)       396.5  Rx         02C1  8  00 00 00 00 00 00 00 00 
   668)       396.8  Rx         02AD  8  00 00 00 00 00 00 00 00 
   669)       398.6  Rx         00E0  8  FF 3B 00 E0 30 72 00 00 
   670)       400.2  Rx         0191  8  00 00 81 20 00 80 0C ED 
   671)       401.1  Rx         0122  8  00 00 00 00 00 00 0D AE 
   672)       401.7  Rx         02A2  8  00 00 00 00 00 00 00 00 
   673)       402.0  Rx         0123  8  00 00 00 00 00 00 0D AE 
   674)       402.2  Rx         0124  8  00 00 00 00 00 00 D0 C1 
   675)       402.9  Rx         02FC  8  0A 00 00 00 00 00 40 00 
   676)       403.3  Rx         0081  8  00 00 10 0D 53 00 00 00 
   677)       403.5  Rx         0084  8  00 00 00 7C C0 8F A0 59 
   678)       403.8  Rx         0085  8  97 00 0D 4E B1 60 00 00 
   679)       404.0  Rx         0086  8  81 1A 8F 7C 01 7D 40 35 
   680)       404.3  Rx         0125  8  00 00 01 08 00 40 0D AC 
   681)       405.5  Rx         02D2  8  00 BE 20 00 00 00 00 00 
   682)       406.1  Rx         0150  8  7E 00 08 00 85 01 06 32 
   683)       406.7  Rx         02A9  8  00 00 00 00 00 00 00 00 
   684)       407.6  Rx         02FB  8  00 00 07 CA 46 51 07 C0 
   685)       408.8  Rx         00E0  8  FF 3B 00 E0 40 8C 00 00 
   686)       409.0  Rx         0281  8  00 03 00 01 00 00 0A 2A 
   687)       409.3  Rx         02C3  8  00 00 00 00 00 00 00 00 
   688)       409.9  Rx         01B0  8  05 20 50 01 00 00 0A C6 
   689)       411.5  Rx         0286  8  01 40 01 40 00 00 00 00 
   690)       411.7  Rx         00F9  8  30 00 FF FF FF FF FF FF 
   691)       412.0  Rx         00FA  8  0C FF FF FF FF FF FF FF 
   692)       412.2  Rx         012F  8  00 3F 00 00 00 00 00 00 
   693)       412.5  Rx         02AA  8  00 00 00 00 00 00 00 00 
   694)       412.9  Rx         02FD  8  00 00 00 00 00 00 00 00 
   695)       413.4  Rx         0081  8  00 00 10 0D 53 00 00 00 
   696)       413.6  Rx         0084  8  00 00 00 7C C0 8F A1 76 
   697)       413.9  Rx         0086  8  81 1A 8F 7C 01 7D 40 35 
   698)       414.1  Rx         0085  8  97 00 0D 4E 1F 60 00 10 
   699)       414.9  Rx         0113  8  00 00 50 00 AA 09 09 FC 
   700)       415.1  Rx         0139  8  01 00 00 00 7F 7F 00 00 
   701)       415.4  Rx         0285  8  01 40 01 40 00 00 00 00 
   702)       415.6  Rx         01A2  8  80 05 00 80 A0 06 02 E6 
   703)       415.8  Rx         01A3  8  FF 00 30 00 00 00 04 07 
   704)       416.1  Rx         01A6  8  FF FF 00 FF FF 00 00 00 
   705)       416.3  Rx         01A7  8  FF FF 00 FF FF 00 00 00 
   706)       416.6  Rx         0288  8  80 00 00 37 00 11 00 00 
   707)       416.8  Rx         028A  8  B4 00 02 00 F0 5B 08 89 
   708)       417.1  Rx         028C  8  00 F0 00 00 00 00 00 00 
   709)       417.3  Rx         02AC  8  00 00 00 00 00 00 00 00 
   710)       417.6  Rx         0260  8  00 00 00 00 00 00 1A A8 
   711)       417.8  Rx         0386  8  5B 00 8E 7E 64 00 88 0A 
   712)       418.0  Rx         03B0  8  A6 65 80 BD 29 00 00 00 
   713)       418.3  Rx         03F8  8  10 00 64 2C 80 00 00 00 
   714)       418.7  Rx         00E0  8  FF 3B 00 E0 50 6C 00 00 
   715)       420.3  Rx         0191  8  00 00 81 20 00 80 0D C2 
   716)       421.1  Rx         0122  8  00 00 00 00 00 00 0E DF 
   717)       421.8  Rx         0123  8  00 00 00 00 00 00 0E DF 
   718)       422.1  Rx         0124  8  00 00 00 00 00 00 E0 1C 
   719)       422.8  Rx         0081  8  00 00 10 0D 53 00 00 00 
   720)       423.1  Rx         0125  8  00 00 01 08 00 40 0E DD 
   721)       423.3  Rx         0294  8  01 00 00 00 00 00 00 00 
   722)       423.5  Rx         0084  8  00 00 00 7C C0 8F A2 07 
   723)       423.8  Rx         0085  8  97 00 0D 47 4C 60 00 20 
   724)       424.0  Rx         0086  8  81 1A 8F 7C 01 7D 40 35 
   725)       424.3  Rx         026D  8  00 4D 0D 04 1A 00 00 00 
   726)       426.2  Rx         0150  8  7E 00 08 00 45 01 07 21 
   727)       428.6  Rx         00E0  8  FF 3B 00 E0 60 63 00 00 
   728)       430.0  Rx         01B0  8  05 20 50 01 00 00 0B E9 
   729)       431.7  Rx         00F9  8  30 00 FF FF FF FF FF FF 
   730)       432.0  Rx         00FA  8  0C FF FF FF FF FF FF FF 
   731)       432.2  Rx         02B3  8  C1 00 00 00 00 00 00 00 
   732)       432.5  Rx         02B6  8  00 00 00 00 00 00 00 00 
   733)       432.9  Rx         0081  8  00 00 10 0D 53 00 00 00 
   734)       433.9  Rx         0084  8  00 00 00 7C C0 8F A3 28 
   735)       434.1  Rx         0085  8  97 00 0D 44 12 60 00 30 
   736)       434.4  Rx         0086  8  81 1A 8F 7C 01 7D 40 35 
   737)       434.6  Rx         01A2  8  80 05 00 80 B0 06 02 06 
   738)       434.9  Rx         0113  8  00 00 50 00 AA 09 0A 8D 
   739)       435.1  Rx         0218  8  3D 00 00 00 00 00 02 4D 
   740)       438.6  Rx         00E0  8  FF 3B 00 E0 70 83 00 00 
   741)       439.8  Rx         0191  8  00 00 81 20 00 80 0E B3 
   742)       440.0  Rx         01B2  8  13 00 2B 3F 00 00 00 00 
   743)       441.2  Rx         0122  8  00 00 00 00 00 00 0F F0 
   744)       441.5  Rx         01F0  8  00 08 00 00 05 05 01 B1 
   745)       441.9  Rx         0123  8  00 00 00 00 00 00 0F F0 
   746)       442.2  Rx         0124  8  00 00 00 00 00 00 F0 B2 
   747)       442.4  Rx         01F2  8  B1 AD AA B1 2E 2C 2E 2D 
   748)       442.6  Rx         0125  8  00 00 01 08 00 40 0F F2 
   749)       443.1  Rx         0081  8  00 00 10 0D 53 00 00 00 
   750)       444.2  Rx         0084  8  00 00 00 7C C0 8F A4 E5 
   751)       444.5  Rx         0085  8  97 00 0D 41 16 60 00 40 
   752)       444.7  Rx         0086  8  81 1A 8F 7C 11 7D 40 35 
   753)       446.1  Rx         0150  8  7E 00 08 00 85 01 08 87 
   754)       446.7  Rx         02A0  8  00 00 00 00 00 00 00 00 
   755)       446.9  Rx         02A1  8  00 00 00 7F 7F 7F 7F 7F 
   756)       447.1  Rx         02A4  8  00 80 00 00 18 03 28 00 
   757)       447.4  Rx         02B4  8  00 00 00 00 00 00 00 00 
   758)       448.8  Rx         00E0  8  FF 3B 00 E0 80 B0 00 00 
   759)       449.7  Rx         01B0  8  05 20 50 01 00 00 0C 24 
   760)       450.0  Rx         02E0  8  A1 00 20 00 00 00 0F 30 
   761)       451.7  Rx         02A5  8  00 0F 07 1F 1F 00 00 00 
   762)       452.0  Rx         00F9  8  30 00 FF FF FF FF FF FF 
   763)       452.2  Rx         00FA  8  0C FF FF FF FF FF FF FF 
   764)       452.9  Rx         0081  8  00 00 10 0D 53 00 00 00 
   765)       453.9  Rx         0084  8  00 00 00 7C C0 8F A5 CA 
   766)       454.1  Rx         0085  8  97 00 0D 43 FD 60 00 50 
   767)       454.4  Rx         0086  8  81 1A 8F 7C 11 7D 40 35 
   768)       454.6  Rx         01A2  8  80 05 00 80 C0 06 02 F8 
   769)       454.8  Rx         0113  8  00 00 50 00 AA 09 0B A2 
   770)       456.7  Rx         02A6  8  00 00 00 00 00 00 00 7F 
   771)       458.6  Rx         00E0  8  FF 3B 00 E0 90 50 00 00 
   772)       460.1  Rx         0191  8  00 00 81 20 00 80 0F 9C 
   773)       461.1  Rx         0122  8  00 00 00 00 00 00 00 6A 
   774)       461.6  Rx         02C8  8  00 80 05 00 00 00 00 00 
   775)       461.9  Rx         0123  8  00 00 00 00 00 00 00 6A 
   776)       462.1  Rx         0124  8  00 00 00 00 00 00 00 6A 
   777)       462.4  Rx         02A7  8  00 00 00 00 00 00 00 00 
   778)       462.9  Rx         0081  8  00 00 10 0D 53 00 00 00 
   779)       463.2  Rx         0125  8  00 00 01 08 00 40 00 68 
   780)       463.4  Rx         0084  8  00 00 00 7C C0 8F A6 BB 
   781)       463.7  Rx         0085  8  97 00 0D 46 1F 60 00 60 
   782)       463.9  Rx         0086  8  81 1A 8F 7C 01 7D 40 35 
   783)       464.1  Rx         01A3  8  FF 00 30 00 00 00 05 28 
   784)       464.8  Rx         0139  8  01 00 00 00 7F 7F 00 00 
   785)       465.0  Rx         01A6  8  FF FF 00 FF FF 00 00 00 
   786)       465.2  Rx         01A7  8  FF FF 00 FF FF 00 00 00 
   787)       466.3  Rx         0150  8  7E 00 08 00 85 01 09 A8 
   788)       466.7  Rx         02A3  8  E7 00 FF 18 E7 00 03 FF 
   789)       468.6  Rx         00E0  8  FF 3B 00 E0 A0 5F 00 00 
   790)       470.2  Rx         01B0  8  05 20 50 01 00 00 0D 0B 
   791)       471.7  Rx         00F9  8  30 00 FF FF FF FF FF FF 
   792)       472.0  Rx         00FA  8  0C FF FF FF FF FF FF FF 
   793)       472.3  Rx         040E  8  0E 00 06 01 20 00 00 00 
   794)       473.0  Rx         0081  8  00 00 10 0D 53 00 00 00 
   795)       474.0  Rx         0084  8  00 00 00 7C C0 8F A7 94 
   796)       474.2  Rx         0085  8  97 00 0D 46 B1 60 00 70 
   797)       474.4  Rx         0086  8  81 1A 8F 7C 01 7D 40 35 
   798)       474.7  Rx         01A2  8  80 05 00 80 D0 06 02 18 
   799)       474.9  Rx         0113  8  00 00 50 00 AA 09 0C 6F 
   800)       475.9  Rx         02F1  8  20 4A FF FF FF 3F 6B 00 
   801)       476.2  Rx         02F2  8  00 04 12 0A 0A 00 00 00 
   802)       478.7  Rx         00E0  8  FF 3B 00 E0 B0 BF 00 00 
   803)       479.8  Rx         0191  8  00 00 81 20 00 80 00 06 
   804)       481.1  Rx         0122  8  00 00 00 00 00 00 01 45 
   805)       481.7  Rx         02AE  8  01 00 00 00 00 00 60 00 
   806)       482.0  Rx         0123  8  00 00 00 00 00 00 01 45 
   807)       482.2  Rx         0124  8  00 00 00 00 00 00 10 C4 
   808)       482.9  Rx         0081  8  00 00 10 0D 53 00 00 00 
   809)       483.1  Rx         0125  8  00 00 01 08 00 40 01 47 
   810)       483.4  Rx         0084  8  00 00 00 7C C0 8F A8 0E 
   811)       484.2  Rx         0085  8  97 00 0D 4A D8 60 00 80 
   812)       484.5  Rx         0086  8  81 1A 8F 7C 01 7D 40 35 
   813)       486.1  Rx         0150  8  7E 00 08 00 85 01 0A D9 
   814)       486.7  Rx         02D0  8  00 00 00 00 00 00 00 00 
   815)       487.0  Rx         02A8  8  00 00 00 00 00 00 90 27 
   816)       488.7  Rx         00E0  8  FF 3B 00 E0 C0 41 00 00 
   817)       489.9  Rx         01B0  8  05 20 50 01 00 00 0E 7A 
   818)       490.1  Rx         01B2  8  13 00 2B 3F 00 00 00 00 
   819)       490.9  Rx         01F0  8  00 08 00 00 05 05 02 C0 
   820)       491.4  Rx         01F2  8  B1 AD AA B1 2E 2C 2E 2D 
   821)       491.7  Rx         00F9  8  30 00 FF FF FF FF FF FF 
   822)       492.0  Rx         00FA  8  0C FF FF FF FF FF FF FF 
   823)       492.2  Rx         0284  8  00 20 40 40 00 30 00 00 
   824)       493.3  Rx         0081  8  00 00 10 0D 53 00 00 00 
   825)       493.5  Rx         0084  8  00 00 00 7C C0 8F A9 21 
   826)       493.7  Rx         0085  8  97 00 0D 47 72 60 00 90 
   827)       493.9  Rx         0287  8  00 00 00 00 42 10 01 21 
   828)       494.2  Rx         0086  8  81 1A 8F 7C 01 7D 40 35 
   829)       494.5  Rx         028B  8  00 00 00 00 00 00 00 00 
   830)       495.0  Rx         0113  8  00 00 50 00 AA 09 0D 40 
   831)       495.2  Rx         01A2  8  80 05 00 80 E0 06 02 17 
   832)       496.6  Rx         02C1  8  00 00 00 00 00 00 00 00 
   833)       496.8  Rx         02AD  8  00 00 00 00 00 00 00 00 
   834)       498.6  Rx         00E0  8  FF 3B 00 E0 D0 A1 00 00 
   835)       499.8  Rx         0191  8  00 00 81 20 00 80 01 29 
   836)       501.2  Rx         0122  8  00 00 00 00 00 00 02 34 
   837)       501.8  Rx         02A2  8  00 00 00 00 00 00 00 00 
   838)       502.0  Rx         0123  8  00 00 00 00 00 00 02 34 
   839)       502.2  Rx         0124  8  00 00 00 00 00 00 20 19 
   840)       502.9  Rx         02FC  8  0A 00 00 00 00 00 40 00 
   841)       503.3  Rx         0081  8  00 00 10 0D 53 00 00 00 
   842)       503.5  Rx         0084  8  00 00 00 7C C0 8F AA 50 
   843)       503.8  Rx         0085  8  97 00 0D 39 36 60 00 A0 
   844)       504.0  Rx         0086  8  81 1A 8F 7C 11 7D 40 35 
   845)       504.2  Rx         0125  8  00 00 01 08 00 40 02 36 
   846)       505.6  Rx         02D2  8  00 BE 20 00 00 00 00 00 
   847)       506.1  Rx         0150  8  7E 00 08 00 85 01 0B F6 
   848)       506.7  Rx         02A9  8  00 00 00 00 00 00 00 00 
   849)       507.6  Rx         02FB  8  00 00 07 CC 46 50 07 C0 
   850)       508.8  Rx         00E0  8  FF 3B 00 E0 E0 AE 00 00 
   851)       509.1  Rx         0281  8  00 03 00 01 00 00 0B 05 
   852)       509.3  Rx         02C3  8  00 00 00 00 00 00 00 00 
   853)       509.8  Rx         01B0  8  05 20 50 01 00 00 0F 55 
   854)       511.5  Rx         0286  8  01 40 01 40 00 00 00 00 
   855)       511.7  Rx         012F  8  00 3F 00 00 00 00 00 00 
   856)       512.0  Rx         00F9  8  30 00 FF FF FF FF FF FF 
   857)       512.3  Rx         00FA  8  0C FF FF FF FF FF FF FF 
   858)       512.5  Rx         02AA  8  00 00 00 00 00 00 00 00 
   859)       512.9  Rx         02FD  8  00 00 00 00 00 00 00 00 
   860)       513.4  Rx         0081  8  00 00 10 0D 53 00 00 00 
   861)       513.7  Rx         0084  8  00 00 00 7C D0 8F AB 9F 
   862)       513.9  Rx         0085  8  97 00 0D 30 16 60 00 B0 
   863)       514.1  Rx         0086  8  81 1A 8F 7C 11 7D 40 35 
   864)       514.9  Rx         0113  8  00 00 50 00 AA 09 0E 31 
   865)       515.2  Rx         0139  8  01 00 00 00 7F 7F 00 00 
   866)       515.4  Rx         0285  8  01 40 01 40 00 00 00 00 
   867)       515.7  Rx         01A2  8  80 05 00 80 F0 06 02 F7 
   868)       515.9  Rx         01A3  8  FF 00 30 00 00 00 06 59 
   869)       516.1  Rx         01A6  8  FF FF 00 FF FF 00 00 00 
   870)       516.4  Rx         01A7  8  FF FF 00 FF FF 00 00 00 
   871)       516.6  Rx         0288  8  80 00 00 37 00 11 00 00 
   872)       516.9  Rx         028A  8  B5 00 02 00 F0 5B 09 52 
   873)       517.1  Rx         028C  8  00 F0 00 00 00 00 00 00 
   874)       517.4  Rx         02AC  8  00 00 00 00 00 00 00 00 
   875)       517.6  Rx         0260  8  00 00 00 00 00 00 1A A8 
   876)       518.7  Rx         00E0  8  FF 3B 00 E0 F0 4E 00 00 
   877)       520.1  Rx         0191  8  00 00 81 20 00 80 02 58 
   878)       520.6  Rx         02AB  8  01 80 00 00 00 03 00 00 
   879)       520.9  Rx         02CA  8  71 10 08 00 00 00 00 00 
   880)       521.2  Rx         0122  8  00 00 00 00 00 00 03 1B 
   881)       521.9  Rx         0123  8  00 00 00 00 00 00 03 1B 
   882)       522.1  Rx         0124  8  00 00 00 00 00 00 30 B7 
   883)       522.8  Rx         0081  8  00 00 10 0D 53 00 00 00 
   884)       523.1  Rx         0125  8  00 00 01 08 00 40 03 19 
   885)       523.3  Rx         0294  8  01 00 00 00 00 00 00 00 
   886)       523.6  Rx         0084  8  00 00 00 7C D0 8F 9C 8F 
   887)       523.8  Rx         0085  8  97 00 0D 2B 90 60 00 C0 
   888)       524.1  Rx         026D  8  00 4D 0D 04 1A 00 00 00 
   889)       524.6  Rx         0086  8  81 1B 8F 7C 11 7D 40 35 
   890)       526.2  Rx         0150  8  7E 00 08 00 85 01 0C 3B 
   891)       528.6  Rx         00E0  8  FF 3B 00 E0 00 7D 00 00 
   892)       530.5  Rx         01B0  8  05 20 50 01 00 00 00 CF 
   893)       531.8  Rx         00F9  8  30 00 FF FF FF FF FF FF 
   894)       532.0  Rx         00FA  8  0C FF FF FF FF FF FF FF 
   895)       532.2  Rx         02B3  8  C1 00 00 00 00 00 00 00 
   896)       532.5  Rx         02B6  8  00 00 00 00 00 00 00 00 
   897)       532.7  Rx         0380  8  13 10 50 00 00 00 00 00 
   898)       532.9  Rx         0081  8  00 00 10 0D 53 00 00 00 
   899)       533.6  Rx         03F6  8  00 01 FF 00 00 1F F5 A6 
   900)       533.9  Rx         0084  8  00 00 00 7C D0 8F 9D A0 
   901)       534.1  Rx         0085  8  98 00 0D 2A 74 60 00 D0 
   902)       534.4  Rx         0086  8  81 1B 8F 7C 11 7D 50 35 
   903)       534.6  Rx         01A2  8  80 05 00 80 00 06 02 C4 
   904)       534.9  Rx         0113  8  00 00 50 00 AA 09 0F 1E 
   905)       535.1  Rx         0218  8  3D 00 00 00 00 00 03 62 
   906)       536.7  Rx         03E1  8  00 00 00 00 00 00 05 F9 
   907)       536.9  Rx         03E2  8  00 00 00 00 00 00 05 F9 
   908)       538.7  Rx         00E0  8  FF 3B 00 E0 10 9D 00 00 
   909)       539.8  Rx         0191  8  00 00 81 20 00 80 03 77 
   910)       540.0  Rx         01B2  8  13 00 2B 3F 00 00 00 00 
   911)       540.9  Rx         01F0  8  00 08 00 00 05 05 03 EF 
   912)       541.2  Rx         0122  8  00 00 00 00 00 00 04 D6 
   913)       541.6  Rx         01F2  8  B1 AD AA B1 2E 2C 2E 2D 
   914)       541.9  Rx         0123  8  00 00 00 00 00 00 04 D6 
   915)       542.1  Rx         0124  8  00 00 00 00 00 00 40 8C 
   916)       542.9  Rx         0125  8  00 00 01 08 00 40 04 D4 
   917)       543.1  Rx         0081  8  00 00 10 0D 53 00 00 00 
   918)       544.1  Rx         0084  8  00 00 00 7C D0 8F 9E D1 
   919)       544.3  Rx         0085  8  98 00 0D 26 18 60 00 E0 
   920)       544.6  Rx         0086  8  81 1B 90 7C 11 7D 60 35 
   921)       546.2  Rx         0150  8  7E 00 08 00 85 01 0D 14 
   922)       546.7  Rx         02A0  8  00 00 00 00 00 00 00 00 
   923)       546.9  Rx         02A1  8  00 00 00 7F 7F 7F 7F 7F 
   924)       547.2  Rx         02A4  8  00 80 00 00 18 03 28 00 
   925)       547.4  Rx         02B4  8  00 00 00 00 00 00 00 00 
   926)       548.8  Rx         00E0  8  FF 3B 00 E0 20 92 00 00 
   927)       550.1  Rx         01B0  8  05 20 50 01 00 00 01 E0 
   928)       550.3  Rx         02E0  8  A1 00 20 00 00 00 00 AA 
   929)       551.7  Rx         02A5  8  00 0F 07 1F 1F 00 00 00 
   930)       551.9  Rx         00F9  8  30 00 FF FF FF FF FF FF 
   931)       552.2  Rx         00FA  8  0C FF FF FF FF FF FF FF 
   932)       552.9  Rx         0081  8  00 00 10 0D 53 00 00 00 
   933)       553.9  Rx         0084  8  00 00 00 7C D0 8F 9F FE 
   934)       554.1  Rx         0085  8  98 00 0D 20 79 60 00 F0 
   935)       554.4  Rx         0086  8  81 1B 90 7C 11 7D 60 35 
   936)       554.6  Rx         01A2  8  80 05 00 80 10 06 02 24 
   937)       554.8  Rx         0113  8  00 00 50 00 AA 09 00 84 
   938)       556.7  Rx         02A6  8  00 00 00 00 00 00 00 7F 
   939)       558.6  Rx         00E0  8  FF 3B 00 E0 30 72 00 00 
   940)       560.0  Rx         0191  8  00 00 81 20 00 80 04 BA 
   941)       561.1  Rx         0122  8  00 00 00 00 00 00 05 F9 
   942)       561.7  Rx         02C8  8  00 80 05 00 00 00 00 00 
   943)       561.9  Rx         0123  8  00 00 00 00 00 00 05 F9 
   944)       562.2  Rx         0124  8  00 00 00 00 00 00 50 22 
   945)       562.4  Rx         02A7  8  00 00 00 00 00 00 00 00 
   946)       562.9  Rx         0081  8  00 00 10 0D 53 00 00 00 
   947)       563.2  Rx         0125  8  00 00 01 08 00 40 05 FB 
   948)       563.5  Rx         0084  8  00 00 00 7C D0 8F 90 64 
   949)       564.3  Rx         0085  8  98 00 0D 1F 7A 60 00 00 
   950)       564.6  Rx         0086  8  81 1B 90 7C 11 7D 60 35 
   951)       564.8  Rx         0139  8  01 00 00 00 7F 7F 00 00 
   952)       565.1  Rx         01A3  8  FF 00 30 00 00 00 07 76 
   953)       565.3  Rx         01A6  8  FF FF 00 FF FF 00 00 00 
   954)       565.5  Rx         01A7  8  FF FF 00 FF FF 00 00 00 
   955)       566.3  Rx         0150  8  7E 00 08 00 45 01 0E 59 
   956)       566.7  Rx         02A3  8  E7 00 FF 18 E7 00 03 FF 
   957)       568.7  Rx         00E0  8  FF 3B 00 E0 40 8C 00 00 
   958)       569.9  Rx         01B0  8  05 20 50 01 00 00 02 91 
   959)       571.7  Rx         00F9  8  30 00 FF FF FF FF FF FF 
   960)       572.0  Rx         00FA  8  0C FF FF FF FF FF FF FF 
   961)       572.9  Rx         0081  8  00 00 10 0D 53 00 00 00 
   962)       573.9  Rx         0084  8  00 00 00 7C D0 8F 91 4B 
   963)       574.1  Rx         0085  8  98 00 0D 25 30 60 00 10 
   964)       574.3  Rx         0086  8  81 1B 91 7C 11 7D 60 35 
   965)       574.6  Rx         01A2  8  80 05 00 80 20 06 02 2B 
   966)       574.8  Rx         0113  8  00 00 50 00 AA 09 01 AB 
   967)       575.9  Rx         02F1  8  20 4A FF FF FF 3F 6B 00 
   968)       576.2  Rx         02F2  8  00 04 12 0A 0A 00 00 00 
   969)       577.0  Rx         0374  8  00 00 00 00 00 00 00 00 
   970)       578.6  Rx         00E0  8  FF 3B 00 E0 50 6C 00 00 
   971)       580.0  Rx         0191  8  00 00 81 20 00 80 05 95 
   972)       581.1  Rx         0122  8  00 00 00 00 00 00 06 88 
   973)       581.7  Rx         02AE  8  01 00 00 00 00 00 60 00 
   974)       582.0  Rx         0123  8  00 00 00 00 00 00 06 88 
   975)       582.2  Rx         0124  8  00 00 00 00 00 00 60 FF 
   976)       582.9  Rx         0081  8  00 00 10 0D 53 00 00 00 
   977)       583.1  Rx         0125  8  00 00 01 08 00 40 06 8A 
   978)       584.1  Rx         0085  8  98 00 0D 2A AC 60 00 20 
   979)       584.4  Rx         0084  8  00 00 00 7C D0 8F 92 3A 
   980)       584.6  Rx         0086  8  81 1B 91 7C 11 7D 60 35 
   981)       586.1  Rx         0150  8  7E 00 08 00 85 01 0F 4A 
   982)       586.7  Rx         02D0  8  00 00 00 00 00 00 00 00 
   983)       587.0  Rx         02A8  8  00 00 00 00 00 00 A0 FA 
   984)       588.7  Rx         00E0  8  FF 3B 00 E0 60 63 00 00 
   985)       589.8  Rx         01B0  8  05 20 50 01 00 00 03 BE 
   986)       590.0  Rx         01B2  8  13 00 2B 3F 00 00 00 00 
   987)       591.1  Rx         01F0  8  00 08 00 00 05 05 04 22 
   988)       591.6  Rx         01F2  8  B1 AD AA B1 2E 2C 2E 2D 
   989)       591.9  Rx         00F9  8  30 00 FF FF FF FF FF FF 
   990)       592.1  Rx         00FA  8  0C FF FF FF FF FF FF FF 
   991)       592.4  Rx         0284  8  00 20 40 40 00 30 00 00 
   992)       593.4  Rx         0081  8  00 00 10 0D 53 00 00 00 
   993)       593.6  Rx         0084  8  00 00 00 7C D0 8F 93 15 
   994)       593.9  Rx         0085  8  98 00 0D 2D 78 60 00 30 
   995)       594.1  Rx         0086  8  81 1B 91 7C 11 7D 60 35 
   996)       594.3  Rx         0287  8  00 00 00 00 42 10 01 21 
   997)       594.6  Rx         028B  8  00 00 00 00 00 00 00 00 
   998)       594.9  Rx         0370  8  0F 00 00 00 00 00 00 00 
   999)       595.2  Rx         0113  8  00 00 50 00 AA 09 02 DA 
  1000)       595.5  Rx         01A2  8  80 05 00 80 30 06 02 CB 
  1001)       596.5  Rx         02C1  8  00 00 00 00 00 00 00 00 
  1002)       596.8  Rx         02AD  8  00 00 00 00 00 00 00 00 
  1003)       598.6  Rx         00E0  8  FF 3B 00 E0 70 83 00 00 
  1004)       599.9  Rx         0191  8  00 00 81 20 00 80 06 E4 
  1005)       601.1  Rx         0122  8  00 00 00 00 00 00 07 A7 
  1006)       601.8  Rx         02A2  8  00 00 00 00 00 00 00 00 
  1007)       602.0  Rx         0123  8  00 00 00 00 00 00 07 A7 
  1008)       602.2  Rx         0124  8  00 00 00 00 00 00 70 51 
  1009)       602.5  Rx         0125  8  00 00 01 08 00 40 07 A5 
  1010)       603.0  Rx         02FC  8  0A 00 00 00 00 00 40 00 
  1011)       603.4  Rx         0081  8  00 00 10 0D 53 00 00 00 
  1012)       603.6  Rx         0084  8  00 00 00 7C D0 8F 94 D8 
  1013)       603.9  Rx         0085  8  98 00 0D 36 FE 60 00 40 
  1014)       604.1  Rx         0086  8  81 1B 91 7C 11 7D 60 35 
  1015)       605.5  Rx         02D2  8  00 BE 20 00 00 00 00 00 
  1016)       606.1  Rx         0150  8  7E 00 08 00 85 01 00 D0 
  1017)       606.8  Rx         02A9  8  00 00 00 00 00 00 00 00 
  1018)       607.7  Rx         02FB  8  00 00 07 CB 46 50 07 BF 
  1019)       608.8  Rx         00E0  8  FF 3B 00 E0 80 B0 00 00 
  1020)       609.1  Rx         0281  8  00 03 00 01 00 00 0C C8 
  1021)       609.3  Rx         02C3  8  00 00 00 00 00 00 00 00 
  1022)       609.8  Rx         01B0  8  05 20 50 01 00 00 04 73 
  1023)       611.5  Rx         0286  8  01 40 01 40 00 00 00 00 
  1024)       611.7  Rx         00F9  8  30 00 FF FF FF FF FF FF 
  1025)       612.0  Rx         00FA  8  0C FF FF FF FF FF FF FF 
  1026)       612.3  Rx         012F  8  00 3F 00 00 00 00 00 00 
  1027)       612.5  Rx         02AA  8  00 00 00 00 00 00 00 00 
  1028)       612.9  Rx         02FD  8  00 00 00 00 00 00 00 00 
  1029)       613.4  Rx         0081  8  00 00 10 0D 53 00 00 00 
  1030)       613.6  Rx         0084  8  00 00 00 7C D0 8F 95 F7 
  1031)       613.9  Rx         0085  8  98 00 0D 3E 6B 60 00 50 
  1032)       614.1  Rx         0086  8  81 1B 90 7C 11 7D 60 35 
  1033)       614.9  Rx         0113  8  00 00 50 00 AA 09 03 F5 
  1034)       615.1  Rx         0139  8  01 00 00 00 7F 7F 00 00 
  1035)       615.4  Rx         0285  8  01 40 01 40 00 00 00 00 
  1036)       615.6  Rx         01A2  8  80 05 00 80 40 06 02 35 
  1037)       615.8  Rx         01A3  8  FF 00 30 00 00 00 08 EC 
  1038)       616.1  Rx         0288  8  80 00 00 37 00 11 00 00 
  1039)       616.4  Rx         01A6  8  FF FF 00 FF FF 00 00 00 
  1040)       616.6  Rx         01A7  8  FF FF 00 FF FF 00 00 00 
  1041)       616.8  Rx         028A  8  B4 00 02 00 F0 5B 0A D7 
  1042)       617.1  Rx         028C  8  00 F0 00 00 00 00 00 00 
  1043)       617.3  Rx         02AC  8  00 00 00 00 00 00 00 00 
  1044)       617.6  Rx         0260  8  00 00 00 00 00 00 1A A8 
  1045)       617.8  Rx         0386  8  5B 00 8E 7E 64 00 88 0A 
  1046)       618.1  Rx         03F8  8  10 00 64 2C 80 00 00 00 
  1047)       618.7  Rx         00E0  8  FF 3B 00 E0 90 50 00 00 
  1048)       619.8  Rx         0191  8  00 00 81 20 00 80 07 CB 
  1049)       621.0  Rx         0294  8  01 00 00 00 00 00 00 00 
  1050)       621.8  Rx         0122  8  00 00 00 00 00 00 08 3D 
  1051)       622.1  Rx         0123  8  00 00 00 00 00 00 08 3D 
  1052)       622.8  Rx         0081  8  00 00 10 0D 53 00 00 00 
  1053)       623.1  Rx         0124  8  00 00 00 00 00 00 80 89 
  1054)       623.3  Rx         0125  8  00 00 01 08 00 40 08 3F 
  1055)       623.6  Rx         0084  8  00 00 00 7C D0 8F 96 86 
  1056)       623.8  Rx         0085  8  98 00 0D 42 6A 60 00 60 
  1057)       624.0  Rx         026D  8  00 4D 0D 04 1A 00 00 00 
  1058)       624.7  Rx         0086  8  81 1B 90 7C 11 7D 50 35 
  1059)       626.3  Rx         0150  8  7E 00 08 00 85 01 01 FF 
  1060)       628.8  Rx         00E0  8  FF 3B 00 E0 A0 5F 00 00 
  1061)       630.7  Rx         01B0  8  05 20 50 01 00 00 05 5C 
  1062)       631.7  Rx         00F9  8  30 00 FF FF FF FF FF FF 
  1063)       632.0  Rx         00FA  8  0C FF FF FF FF FF FF FF 
  1064)       632.2  Rx         02B3  8  C1 00 00 00 00 00 00 00 
  1065)       632.5  Rx         02B6  8  00 00 00 00 00 00 00 00 
  1066)       632.9  Rx         0081  8  00 00 10 0D 53 00 00 00 
  1067)       633.9  Rx         0084  8  00 00 00 7C D0 8F 97 A9 
  1068)       634.1  Rx         0085  8  98 00 0D 42 C4 60 00 70 
  1069)       634.4  Rx         0086  8  81 1B 90 7C 11 7D 50 35 
  1070)       634.6  Rx         01A2  8  80 05 00 80 50 06 02 D5 
  1071)       634.9  Rx         0113  8  00 00 50 00 AA 09 04 38 
  1072)       635.2  Rx         0218  8  3D 00 00 00 00 00 04 AF 
  1073)       638.6  Rx         00E0  8  FF 3B 00 E0 B0 BF 00 00 
  1074)       639.8  Rx         0191  8  00 00 81 20 00 80 08 51 
  1075)       640.0  Rx         01B2  8  13 00 2B 3F 00 00 00 00 
  1076)       640.9  Rx         01F0  8  00 08 00 00 05 05 05 0D 
  1077)       641.1  Rx         0122  8  00 00 00 00 00 00 09 12 
  1078)       641.6  Rx         01F2  8  B1 AD AA B1 2E 2C 2E 2D 
  1079)       641.8  Rx         0123  8  00 00 00 00 00 00 09 12 
  1080)       642.1  Rx         0124  8  00 00 00 00 00 00 90 27 
  1081)       642.3  Rx         0125  8  00 00 01 08 00 40 09 10 
  1082)       643.0  Rx         0081  8  00 00 10 0D 53 00 00 00 
  1083)       644.1  Rx         0084  8  00 00 00 7C C0 8F 98 D3 
  1084)       644.3  Rx         0085  8  98 00 0D 3F 75 60 00 80 
  1085)       644.6  Rx         0086  8  81 1B 8F 7C 11 7D 50 35 
  1086)       646.1  Rx         0150  8  7E 00 08 00 85 01 02 8E 
  1087)       646.7  Rx         02A0  8  00 00 00 00 00 00 00 00 
  1088)       646.9  Rx         02A1  8  00 00 00 7F 7F 7F 7F 7F 
  1089)       647.2  Rx         02A4  8  00 80 00 00 18 03 28 00 
  1090)       647.4  Rx         02B4  8  00 00 00 00 00 00 00 00 
  1091)       648.1  Rx         00E0  8  FF 3B 00 E0 C0 41 00 00 
  1092)       649.7  Rx         01B0  8  05 20 50 01 00 00 06 2D 
  1093)       650.0  Rx         02E0  8  A1 00 20 00 00 00 01 85 
  1094)       651.7  Rx         02A5  8  00 0F 07 1F 1F 00 00 00 
  1095)       651.9  Rx         00F9  8  30 00 FF FF FF FF FF FF 
  1096)       652.2  Rx         00FA  8  0C FF FF FF FF FF FF FF 
  1097)       652.8  Rx         0407  8  07 10 05 01 10 00 00 00 
  1098)       653.1  Rx         0081  8  00 00 10 0D 53 00 00 00 
  1099)       653.9  Rx         0084  8  00 00 00 7C C0 8F 99 FC 
  1100)       654.2  Rx         0085  8  98 00 0D 3F DB 60 00 90 
  1101)       654.4  Rx         0086  8  81 1B 8F 7C 21 7D 50 35 
  1102)       654.6  Rx         01A2  8  80 05 00 80 60 06 02 DA 
  1103)       654.9  Rx         0113  8  00 00 50 00 AA 09 05 17 
  1104)       656.7  Rx         02A6  8  00 00 00 00 00 00 00 7F 
  1105)       658.6  Rx         00E0  8  FF 3B 00 E0 D0 A1 00 00 
  1106)       660.3  Rx         0191  8  00 00 81 20 00 80 09 7E 
  1107)       661.0  Rx         0122  8  00 00 00 00 00 00 0A 63 
  1108)       661.7  Rx         02A7  8  00 00 00 00 00 00 00 00 
  1109)       662.0  Rx         0123  8  00 00 00 00 00 00 0A 63 
  1110)       662.2  Rx         0124  8  00 00 00 00 00 00 A0 FA 
  1111)       662.4  Rx         0125  8  00 00 01 08 00 40 0A 61 
  1112)       662.7  Rx         02C8  8  00 80 05 00 00 00 00 00 
  1113)       663.0  Rx         0081  8  00 00 10 0D 53 00 00 00 
  1114)       664.1  Rx         0084  8  00 00 00 7C D0 8F 9A 6D 
  1115)       664.4  Rx         0085  8  98 00 0D 40 2A 60 00 A0 
  1116)       664.6  Rx         0086  8  81 1B 8F 7C 21 7D 50 35 
  1117)       664.8  Rx         0139  8  01 00 00 00 7F 7F 00 00 
  1118)       665.1  Rx         01A3  8  FF 00 30 00 00 00 09 C3 
  1119)       665.3  Rx         01A6  8  FF FF 00 FF FF 00 00 00 
  1120)       665.6  Rx         01A7  8  FF FF 00 FF FF 00 00 00 
  1121)       666.3  Rx         0150  8  7E 00 08 00 85 01 03 A1 
  1122)       666.7  Rx         02A3  8  E7 00 FF 18 E7 00 03 FF 
  1123)       668.1  Rx         00E0  8  FF 3B 00 E0 E0 AE 00 00 
  1124)       669.5  Rx         0402  8  02 00 02 01 02 00 00 00 
  1125)       669.9  Rx         01B0  8  05 20 50 01 00 00 07 02 
  1126)       671.7  Rx         00F9  8  30 00 FF FF FF FF FF FF 
  1127)       672.0  Rx         00FA  8  0C FF FF FF FF FF FF FF 
  1128)       672.9  Rx         0081  8  00 00 10 0D 53 00 00 00 
  1129)       673.9  Rx         0084  8  00 00 00 7C C0 8F 9B A2 
  1130)       674.1  Rx         0085  8  98 00 0D 45 BB 60 00 B0 
  1131)       674.3  Rx         0086  8  81 1B 8F 7C 21 7D 50 35 
  1132)       674.6  Rx         01A2  8  80 05 00 80 70 06 02 3A 
  1133)       674.8  Rx         0113  8  00 00 50 00 AA 09 06 66 
  1134)       675.9  Rx         02F1  8  20 4A FF FF FF 3F 6B 00 
  1135)       676.1  Rx         02F2  8  00 04 12 0A 0A 00 00 00 
  1136)       678.6  Rx         00E0  8  FF 3B 00 E0 F0 4E 00 00 
  1137)       679.8  Rx         0191  8  00 00 81 20 00 80 0A 0F 
  1138)       681.7  Rx         02AE  8  01 00 00 00 00 00 60 00 
  1139)       682.0  Rx         0122  8  00 00 00 00 00 00 0B 4C 
  1140)       682.2  Rx         0123  8  00 00 00 00 00 00 0B 4C 
  1141)       682.4  Rx         0124  8  00 00 00 00 00 00 B0 54 
  1142)       683.0  Rx         0081  8  00 00 10 0D 53 00 00 00 
  1143)       683.2  Rx         0125  8  00 00 01 08 00 40 0B 4E 
  1144)       683.5  Rx         0084  8  00 00 00 7C C0 8F 9C 6F 
  1145)       683.7  Rx         0085  8  98 00 0D 48 84 60 00 C0 
  1146)       684.5  Rx         0086  8  81 1B 8F 7C 21 7D 50 35 
  1147)       686.1  Rx         0150  8  7E 00 08 00 85 01 04 6C 
  1148)       686.7  Rx         02D0  8  00 00 00 00 00 00 00 00 
  1149)       687.0  Rx         02A8  8  00 00 00 00 00 00 B0 54 
  1150)       688.1  Rx         00E0  8  FF 3B 00 E0 00 7D 00 00 
  1151)       690.0  Rx         01B0  8  05 20 50 01 00 00 08 98 
  1152)       690.2  Rx         01B2  8  13 00 2B 3F 00 00 00 00 
  1153)       690.9  Rx         01F0  8  00 08 00 00 05 05 06 7C 
  1154)       691.4  Rx         01F2  8  B1 AD AA B1 2E 2C 2E 2D 
  1155)       691.7  Rx         00F9  8  30 00 FF FF FF FF FF FF 
  1156)       692.0  Rx         00FA  8  0C FF FF FF FF FF FF FF 
  1157)       692.2  Rx         0284  8  00 20 40 40 00 30 00 00 
  1158)       692.5  Rx         0287  8  00 00 00 00 42 10 01 21 
  1159)       693.3  Rx         0081  8  00 00 10 0D 53 00 00 00 
  1160)       693.6  Rx         0084  8  00 00 00 7C C0 8F 9D 40 
  1161)       693.8  Rx         0085  8  98 00 0D 49 9F 60 00 D0 
  1162)       694.1  Rx         0086  8  81 1B 8F 7C 21 7D 50 35 
  1163)       694.3  Rx         028B  8  00 00 00 00 00 00 00 00 
  1164)       695.0  Rx         0113  8  00 00 50 00 AA 09 07 49 
  1165)       695.2  Rx         01A2  8  80 05 00 80 80 06 02 09 
  1166)       696.5  Rx         02C1  8  00 00 00 00 00 00 00 00 
  1167)       696.8  Rx         02AD  8  00 00 00 00 00 00 00 00 
  1168)       698.6  Rx         00E0  8  FF 3B 00 E0 10 9D 00 00 
  1169)       699.8  Rx         0191  8  00 00 81 20 00 80 0B 20 
  1170)       701.1  Rx         0122  8  00 00 00 00 00 00 0C 81 
  1171)       701.7  Rx         02A2  8  00 00 00 00 00 00 00 00 
  1172)       702.0  Rx         0123  8  00 00 00 00 00 00 0C 81 
  1173)       702.2  Rx         0124  8  00 00 00 00 00 00 C0 6F 
  1174)       702.5  Rx         0125  8  00 00 01 08 00 40 0C 83 
  1175)       703.1  Rx         02FC  8  0A 00 00 00 00 00 40 00 
  1176)       703.4  Rx         0081  8  00 00 10 0D 53 00 00 00 
  1177)       703.7  Rx         0084  8  00 00 00 7C C0 8F 9E 31 
  1178)       703.9  Rx         0085  8  98 00 0D 48 F7 60 00 E0 
  1179)       704.1  Rx         0086  8  81 1B 8F 7C 21 7D 40 35 
  1180)       705.5  Rx         02D2  8  00 BE 20 00 00 00 00 00 
  1181)       706.1  Rx         0150  8  7E 00 08 00 85 01 05 43 
  1182)       706.8  Rx         02A9  8  00 00 00 00 00 00 00 00 
  1183)       707.6  Rx         02FB  8  00 00 07 CC 46 51 07 C0 
  1184)       708.2  Rx         00E0  8  FF 3B 00 E0 20 92 00 00 
  1185)       708.4  Rx         0281  8  00 03 00 01 00 00 0D E7 
  1186)       709.0  Rx         02C3  8  00 00 00 00 00 00 00 00 
  1187)       709.8  Rx         01B0  8  05 20 50 01 00 00 09 B7 
  1188)       711.5  Rx         0286  8  01 40 01 40 00 00 00 00 
  1189)       711.8  Rx         00F9  8  30 00 FF FF FF FF FF FF 
  1190)       712.0  Rx         00FA  8  0C FF FF FF FF FF FF FF 
  1191)       712.2  Rx         012F  8  00 3F 00 00 00 00 00 00 
  1192)       712.5  Rx         02AA  8  00 00 00 00 00 00 00 00 
  1193)       713.0  Rx         02FD  8  00 00 00 00 00 00 00 00 
  1194)       713.4  Rx         0081  8  00 00 10 0D 53 00 00 00 
  1195)       713.6  Rx         0084  8  00 00 00 7C C0 8F 9F 1E 
  1196)       713.9  Rx         0085  8  98 00 0D 47 18 60 00 F0 
  1197)       714.1  Rx         0086  8  81 1B 8F 7C 21 7D 40 35 
  1198)       714.9  Rx         0113  8  00 00 50 00 AA 09 08 D3 
  1199)       715.1  Rx         0139  8  01 00 00 00 7F 7F 00 00 
  1200)       715.4  Rx         0285  8  01 40 01 40 00 00 00 00 
  1201)       715.6  Rx         01A2  8  80 05 00 80 90 06 02 E9 
  1202)       715.9  Rx         01A3  8  FF 00 30 00 00 00 0A B2 
  1203)       716.1  Rx         01A6  8  FF FF 00 FF FF 00 00 00 
  1204)       716.3  Rx         01A7  8  FF FF 00 FF FF 00 00 00 
  1205)       716.6  Rx         0288  8  80 00 00 37 00 11 00 00 
  1206)       716.8  Rx         028A  8  B4 00 02 00 F0 5B 0B F8 
  1207)       717.0  Rx         028C  8  00 F0 00 00 00 00 00 00 
  1208)       717.3  Rx         02AC  8  00 00 00 00 00 00 00 00 
  1209)       717.6  Rx         0260  8  00 00 00 00 00 00 1A A8 
  1210)       718.8  Rx         00E0  8  FF 3B 00 E0 30 72 00 00 
  1211)       720.0  Rx         0191  8  00 00 81 20 00 80 0C ED 
  1212)       720.5  Rx         02AB  8  01 80 00 00 00 03 00 00 
  1213)       721.0  Rx         02CA  8  71 10 08 00 00 00 00 00 
  1214)       721.8  Rx         0122  8  00 00 00 00 00 00 0D AE 
  1215)       722.0  Rx         0123  8  00 00 00 00 00 00 0D AE 
  1216)       722.3  Rx         0124  8  00 00 00 00 00 00 D0 C1 
  1217)       723.0  Rx         0081  8  00 00 10 0D 53 00 00 00 
  1218)       723.2  Rx         0125  8  00 00 01 08 00 40 0D AC 
  1219)       723.5  Rx         0294  8  01 00 00 00 00 00 00 00 
  1220)       723.7  Rx         0084  8  00 00 00 7C C0 8F 90 84 
  1221)       724.0  Rx         0085  8  98 00 0D 47 C0 60 00 00 
  1222)       724.2  Rx         026D  8  00 4D 0D 04 1A 00 00 00 
  1223)       724.7  Rx         0086  8  81 1B 8F 7C 21 7D 40 35 
  1224)       726.3  Rx         0150  8  7E 00 08 00 85 01 06 32 
  1225)       728.0  Rx         00E0  8  FF 3B 00 E0 40 8C 00 00 
  1226)       731.0  Rx         0419  8  19 00 01 01 02 00 00 00 
  1227)       731.7  Rx         00F9  8  30 00 FF FF FF FF FF FF 
  1228)       732.0  Rx         00FA  8  0C FF FF FF FF FF FF FF 
  1229)       732.2  Rx         01B0  8  05 20 50 01 00 00 0A C6 
  1230)       732.5  Rx         02B3  8  C1 00 00 00 00 00 00 00 
  1231)       732.7  Rx         02B6  8  00 00 00 00 00 00 00 00 
  1232)       733.0  Rx         0081  8  00 00 10 0D 53 00 00 00 
  1233)       733.2  Rx         0380  8  13 20 0A 00 00 00 00 00 
  1234)       733.4  Rx         0084  8  00 00 00 7C C0 8F 91 AB 
  1235)       733.7  Rx         0085  8  98 00 0D 4A 6A 60 00 10 
  1236)       733.9  Rx         03F6  8  00 01 FF 00 00 1F F6 D7 
  1237)       734.5  Rx         0086  8  81 1B 8F 7C 21 7D 40 35 
  1238)       734.7  Rx         0113  8  00 00 50 00 AA 09 09 FC 
  1239)       735.0  Rx         01A2  8  80 05 00 80 A0 06 02 E6 
  1240)       735.2  Rx         0218  8  3D 00 00 00 00 00 05 80 
  1241)       736.7  Rx         03E1  8  00 00 00 00 00 00 06 88 
  1242)       736.9  Rx         03E2  8  00 00 00 00 00 00 06 88 
  1243)       738.7  Rx         00E0  8  FF 3B 00 E0 50 6C 00 00 
  1244)       739.7  Rx         0191  8  00 00 81 20 00 80 0D C2 
  1245)       740.0  Rx         01B2  8  13 00 2B 3F 00 00 00 00 
  1246)       740.9  Rx         01F0  8  00 08 00 00 05 05 07 53 
  1247)       741.2  Rx         0122  8  00 00 00 00 00 00 0E DF 
  1248)       741.4  Rx         01F2  8  B1 AD AA B1 2E 2C 2E 2D 
  1249)       741.9  Rx         0123  8  00 00 00 00 00 00 0E DF 
  1250)       742.1  Rx         0124  8  00 00 00 00 00 00 E0 1C 
  1251)       742.9  Rx         0081  8  00 00 10 0D 53 00 00 00 
  1252)       743.1  Rx         0125  8  00 00 01 08 00 40 0E DD 
  1253)       743.3  Rx         0084  8  00 00 00 7C C0 8F 92 DA 
  1254)       743.6  Rx         0085  8  98 00 0D 51 0A 60 00 20 
  1255)       744.4  Rx         0086  8  81 1B 8F 7C 21 7D 40 35 
  1256)       746.1  Rx         0150  8  7E 00 08 00 85 01 07 1D 
  1257)       746.7  Rx         02A0  8  00 00 00 00 00 00 00 00 
  1258)       746.9  Rx         02A1  8  00 00 00 7F 7F 7F 7F 7F 
  1259)       747.2  Rx         02A4  8  00 80 00 00 18 03 28 00 
  1260)       747.4  Rx         02B4  8  00 00 00 00 00 00 00 00 
  1261)       748.2  Rx         00E0  8  FF 3B 00 E0 60 63 00 00 
  1262)       750.0  Rx         01B0  8  05 20 50 01 00 00 0B E9 
  1263)       750.3  Rx         02E0  8  A1 00 20 00 00 00 02 F4 
  1264)       751.7  Rx         02A5  8  00 0F 07 1F 1F 00 00 00 
  1265)       751.9  Rx         00F9  8  30 00 FF FF FF FF FF FF 
  1266)       752.2  Rx         00FA  8  0C FF FF FF FF FF FF FF 
  1267)       752.9  Rx         0081  8  00 00 10 0D 53 00 00 00 
  1268)       753.1  Rx         0084  8  00 00 00 7C C0 8F 93 F5 
  1269)       754.0  Rx         0085  8  98 00 0D 56 DE 60 00 30 
  1270)       754.3  Rx         0086  8  81 1B 8E 7C 11 7D 40 35 
  1271)       754.5  Rx         01A2  8  80 05 00 80 B0 06 02 06 
  1272)       754.7  Rx         0113  8  00 00 50 00 AA 09 0A 8D 
  1273)       756.7  Rx         02A6  8  00 00 00 00 00 00 00 7F 
  1274)       758.6  Rx         00E0  8  FF 3B 00 E0 70 83 00 00 
  1275)       760.4  Rx         0191  8  00 00 81 20 00 80 0E B3 
  1276)       761.1  Rx         0122  8  00 00 00 00 00 00 0F F0 
  1277)       761.7  Rx         02A7  8  00 00 00 00 00 00 00 00 
  1278)       761.9  Rx         0123  8  00 00 00 00 00 00 0F F0 
  1279)       762.2  Rx         0124  8  00 00 00 00 00 00 F0 B2 
  1280)       762.4  Rx         0125  8  00 00 01 08 00 40 0F F2 
  1281)       762.7  Rx         02C8  8  00 80 05 00 00 00 00 00 
  1282)       763.0  Rx         0081  8  00 00 10 0D 53 00 00 00 
  1283)       764.2  Rx         0084  8  00 00 00 7C C0 8F 94 38 
  1284)       764.4  Rx         0085  8  98 00 0D 58 11 60 00 40 
  1285)       764.6  Rx         0086  8  81 1B 8E 7C 11 7D 40 35 
  1286)       764.9  Rx         0139  8  01 00 00 00 7F 7F 00 00 
  1287)       765.1  Rx         01A3  8  FF 00 30 00 00 00 0B 9D 
  1288)       765.3  Rx         01A6  8  FF FF 00 FF FF 00 00 00 
  1289)       765.6  Rx         01A7  8  FF FF 00 FF FF 00 00 00 
  1290)       766.3  Rx         0150  8  7E 00 08 00 85 01 08 87 
  1291)       766.7  Rx         02A3  8  E7 00 FF 18 E7 00 03 FF 
  1292)       768.0  Rx         00E0  8  FF 3B 00 E0 80 B0 00 00 
  1293)       770.0  Rx         01B0  8  05 20 50 01 00 00 0C 24 
  1294)       771.7  Rx         00F9  8  30 00 FF FF FF FF FF FF 
  1295)       772.0  Rx         00FA  8  0C FF FF FF FF FF FF FF 
  1296)       772.9  Rx         0081  8  00 00 10 0D 53 00 00 00 
  1297)       773.9  Rx         0084  8  00 00 00 7C C0 8F 95 17 
  1298)       774.1  Rx         0085  8  99 00 0D 57 0A 60 00 50 
  1299)       774.3  Rx         0086  8  81 1B 8E 7C 11 7D 30 35 
  1300)       774.6  Rx         01A2  8  80 05 00 80 C0 06 02 F8 
  1301)       774.8  Rx         0113  8  00 00 50 00 AA 09 0B A2 
  1302)       775.9  Rx         02F1  8  20 4A FF FF FF 3F 6B 00 
  1303)       776.1  Rx         02F2  8  00 04 12 0A 0A 00 00 00 
  1304)       777.0  Rx         0374  8  00 00 00 00 00 00 00 00 
  1305)       778.7  Rx         00E0  8  FF 3B 00 E0 90 50 00 00 
  1306)       780.0  Rx         0191  8  00 00 81 20 00 80 0F 9C 
  1307)       781.0  Rx         0122  8  00 00 00 00 00 00 00 6A 
  1308)       781.7  Rx         02AE  8  01 00 00 00 00 00 60 00 
  1309)       781.9  Rx         0123  8  00 00 00 00 00 00 00 6A 
  1310)       782.2  Rx         0124  8  00 00 00 00 00 00 00 6A 
  1311)       782.5  Rx         0125  8  00 00 01 08 00 40 00 68 
  1312)       783.0  Rx         0081  8  00 00 10 0D 53 00 00 00 
  1313)       784.1  Rx         0084  8  00 00 00 7C C0 8F 96 66 
  1314)       784.3  Rx         0085  8  99 00 0D 4F 9A 60 00 60 
  1315)       784.5  Rx         0086  8  81 1B 8E 7C 11 7D 30 35 
  1316)       786.1  Rx         0150  8  7E 00 08 00 85 01 09 A8 
  1317)       786.7  Rx         02D0  8  00 00 00 00 00 00 00 00 
  1318)       787.0  Rx         02A8  8  00 00 00 00 00 00 C0 6F 
  1319)       788.1  Rx         00E0  8  FF 3B 00 E0 A0 5F 00 00 
  1320)       789.7  Rx         01B0  8  05 20 50 01 00 00 0D 0B 
  1321)       790.0  Rx         01B2  8  13 00 2B 3F 00 00 00 00 
  1322)       790.9  Rx         01F0  8  00 08 00 00 05 05 08 C9 
  1323)       791.3  Rx         01F2  8  B1 AD AA B1 2E 2C 2E 2D 
  1324)       791.7  Rx         00F9  8  30 00 FF FF FF FF FF FF 
  1325)       792.0  Rx         00FA  8  0C FF FF FF FF FF FF FF 
  1326)       792.2  Rx         0284  8  00 20 40 40 00 30 00 00 
  1327)       792.5  Rx         0287  8  00 00 00 00 42 10 01 21 
  1328)       793.3  Rx         0081  8  00 00 10 0D 53 00 00 00 
  1329)       793.5  Rx         0084  8  00 00 00 7C C0 8F 97 49 
  1330)       793.8  Rx         0085  8  99 00 0D 4F 34 60 00 70 
  1331)       794.0  Rx         0086  8  81 1B 8E 7C 11 7D 30 35 
  1332)       794.3  Rx         028B  8  00 00 00 00 00 00 00 00 
  1333)       795.0  Rx         0113  8  00 00 50 00 AA 09 0C 6F 
  1334)       795.2  Rx         01A2  8  80 05 00 80 D0 06 02 18 
  1335)       796.5  Rx         02C1  8  00 00 00 00 00 00 00 00 
  1336)       796.8  Rx         02AD  8  00 00 00 00 00 00 00 00 
  1337)       798.6  Rx         00E0  8  FF 3B 00 E0 B0 BF 00 00 
  1338)       800.3  Rx         0191  8  00 00 81 20 00 80 00 06 
  1339)       801.1  Rx         0122  8  00 00 00 00 00 00 01 45 
  1340)       801.7  Rx         02A2  8  00 00 00 00 00 00 00 00 
  1341)       802.0  Rx         0123  8  00 00 00 00 00 00 01 45 
  1342)       802.3  Rx         0124  8  00 00 00 00 00 00 10 C4 
  1343)       802.9  Rx         02FC  8  0A 00 00 00 00 00 40 00 
  1344)       803.3  Rx         0081  8  00 00 10 0D 53 00 00 00 
  1345)       803.5  Rx         0084  8  00 00 00 7C C0 8F 98 D3 
  1346)       803.7  Rx         0085  8  99 00 0D 4B 66 60 00 80 
  1347)       804.0  Rx         0125  8  00 00 01 08 00 40 01 47 
  1348)       804.2  Rx         0086  8  81 1B 8E 7C 11 7D 40 35 
  1349)       805.5  Rx         02D2  8  00 BE 20 00 00 00 00 00 
  1350)       806.1  Rx         0150  8  7E 00 08 00 85 01 0A D9 
  1351)       806.7  Rx         02A9  8  00 00 00 00 00 00 00 00 
  1352)       807.6  Rx         02FB  8  00 00 07 CB 46 50 07 C1 
  1353)       808.2  Rx         00E0  8  FF 3B 00 E0 C0 41 00 00 
  1354)       808.4  Rx         0281  8  00 03 00 01 00 00 0E 96 
  1355)       808.9  Rx         02C3  8  00 00 00 00 00 00 00 00 
  1356)       809.9  Rx         01B0  8  05 20 50 01 00 00 0E 7A 
  1357)       811.5  Rx         0286  8  01 40 01 40 00 00 00 00 
  1358)       811.7  Rx         012F  8  00 3F 00 00 00 00 00 00 
  1359)       812.0  Rx         00F9  8  30 00 FF FF FF FF FF FF 
  1360)       812.2  Rx         00FA  8  0C FF FF FF FF FF FF FF 
  1361)       812.5  Rx         02AA  8  00 00 00 00 00 00 00 00 
  1362)       813.0  Rx         02FD  8  00 00 00 00 00 00 00 00 
  1363)       813.4  Rx         0081  8  00 00 10 0D 53 00 00 00 
  1364)       813.7  Rx         0084  8  00 00 00 7C C0 8F 99 FC 
  1365)       813.9  Rx         0085  8  99 00 0D 4C B2 60 00 90 
  1366)       814.1  Rx         0086  8  81 1B 8E 7C 11 7D 40 35 
  1367)       814.4  Rx         01A2  8  80 05 00 80 E0 06 02 17 
  1368)       815.0  Rx         0113  8  00 00 50 00 AA 09 0D 40 
  1369)       815.3  Rx         0288  8  80 00 00 37 00 11 00 00 
  1370)       815.5  Rx         0139  8  01 00 00 00 7F 7F 00 00 
  1371)       815.7  Rx         01A3  8  FF 00 30 00 00 00 0C 50 
  1372)       816.0  Rx         01A6  8  FF FF 00 FF FF 00 00 00 
  1373)       816.2  Rx         01A7  8  FF FF 00 FF FF 00 00 00 
  1374)       816.5  Rx         0285  8  01 40 01 40 00 00 00 00 
  1375)       816.7  Rx         028A  8  B4 00 02 00 F0 5B 0C 35 
  1376)       817.0  Rx         028C  8  00 F0 00 00 00 00 00 00 
  1377)       817.2  Rx         02AC  8  00 00 00 00 00 00 00 00 
  1378)       817.4  Rx         0386  8  5B 00 8E 7E 64 00 88 0A 
  1379)       817.7  Rx         0260  8  00 00 00 00 00 00 1A A8 
  1380)       817.9  Rx         03F8  8  10 00 64 2C 80 00 00 00 
  1381)       818.8  Rx         00E0  8  FF 3B 00 E0 D0 A1 00 00 
  1382)       819.9  Rx         0191  8  00 00 81 20 00 80 01 29 
  1383)       821.7  Rx         0122  8  00 00 00 00 00 00 02 34 
  1384)       821.9  Rx         0123  8  00 00 00 00 00 00 02 34 
  1385)       822.1  Rx         0124  8  00 00 00 00 00 00 20 19 
  1386)       822.9  Rx         0081  8  00 00 10 0D 53 00 00 00 
  1387)       823.1  Rx         0125  8  00 00 01 08 00 40 02 36 
  1388)       823.4  Rx         0294  8  01 00 00 00 00 00 00 00 
  1389)       823.6  Rx         0084  8  00 00 00 7C C0 8F 9A 8D 
  1390)       823.8  Rx         0085  8  99 00 0D 4C 6F 60 00 A0 
  1391)       824.1  Rx         0086  8  81 1B 8F 7C 11 7D 40 35 
  1392)       824.3  Rx         026D  8  00 4D 0D 04 1A 00 00 00 
  1393)       824.6  Rx         0390  8  48 00 00 00 00 00 00 00 
  1394)       826.2  Rx         0150  8  7E 00 08 00 85 01 0B F6 
  1395)       828.8  Rx         00E0  8  FF 3B 00 E0 E0 AE 00 00 
  1396)       829.8  Rx         01B0  8  05 20 50 01 00 00 0F 55 
  1397)       831.7  Rx         00F9  8  30 00 FF FF FF FF FF FF 
  1398)       832.0  Rx         00FA  8  0C FF FF FF FF FF FF FF 
  1399)       832.2  Rx         02B3  8  C1 00 00 00 00 00 00 00 
  1400)       832.5  Rx         02B6  8  00 00 00 00 00 00 00 00 
  1401)       832.9  Rx         0081  8  00 00 10 0D 53 00 00 00 
  1402)       834.0  Rx         0084  8  00 00 00 7C C0 8F 9B A2 
  1403)       834.2  Rx         0085  8  99 00 0D 49 FE 60 00 B0 
  1404)       834.4  Rx         0086  8  81 1B 8F 7C 11 7D 40 35 
  1405)       834.6  Rx         01A2  8  80 05 00 80 F0 06 02 F7 
  1406)       834.9  Rx         0113  8  00 00 50 00 AA 09 0E 31 
  1407)       835.2  Rx         0218  8  3D 00 00 00 00 00 06 F1 
  1408)       838.6  Rx         00E0  8  FF 3B 00 E0 F0 4E 00 00 
  1409)       839.8  Rx         0191  8  00 00 81 20 00 80 02 58 
  1410)       840.0  Rx         01B2  8  13 00 2B 3F 00 00 00 00 
  1411)       840.9  Rx         01F0  8  00 08 00 00 05 05 09 E6 
  1412)       841.1  Rx         0122  8  00 00 00 00 00 00 03 1B 
  1413)       841.6  Rx         01F2  8  B1 AD AA B1 2E 2C 2E 2D 
  1414)       841.8  Rx         0123  8  00 00 00 00 00 00 03 1B 
  1415)       842.1  Rx         0124  8  00 00 00 00 00 00 30 B7 
  1416)       842.3  Rx         0125  8  00 00 01 08 00 40 03 19 
  1417)       843.0  Rx         0081  8  00 00 10 0D 53 00 00 00 
  1418)       844.1  Rx         0084  8  00 00 00 7C C0 8F 9C 6F 
  1419)       844.3  Rx         0085  8  99 00 0D 45 74 60 00 C0 
  1420)       844.5  Rx         0086  8  81 1B 8F 7C 11 7D 40 35 
  1421)       846.1  Rx         0150  8  7E 00 08 00 85 01 0C 3B 
  1422)       846.7  Rx         02A0  8  00 00 00 00 00 00 00 00 
  1423)       846.9  Rx         02A1  8  00 00 00 7F 7F 7F 7F 7F 
  1424)       847.2  Rx         02A4  8  00 80 00 00 18 03 28 00 
  1425)       847.4  Rx         02B4  8  00 00 00 00 00 00 00 00 
  1426)       847.6  Rx         03F0  8  1A 16 0C 1B 01 18 00 02 
  1427)       848.3  Rx         00E0  8  FF 3B 00 E0 00 7D 00 00 
  1428)       849.7  Rx         01B0  8  05 20 50 01 00 00 00 CF 
  1429)       850.0  Rx         02E0  8  A1 00 20 00 00 00 03 DB 
  1430)       851.7  Rx         02A5  8  00 0F 07 1F 1F 00 00 00 
  1431)       851.9  Rx         00F9  8  30 00 FF FF FF FF FF FF 
  1432)       852.2  Rx         00FA  8  0C FF FF FF FF FF FF FF 
  1433)       852.9  Rx         0081  8  00 00 10 0D 53 00 00 00 
  1434)       853.2  Rx         0084  8  00 00 00 7C C0 8F 9D 40 
  1435)       854.0  Rx         0085  8  99 00 0D 43 15 60 00 D0 
  1436)       854.3  Rx         0086  8  81 1B 8F 7C 11 7D 40 35 
  1437)       854.5  Rx         01A2  8  80 05 00 80 00 06 02 C4 
  1438)       854.8  Rx         0113  8  00 00 50 00 AA 09 0F 1E 
  1439)       856.7  Rx         02A6  8  00 00 00 00 00 00 00 7F 
  1440)       858.7  Rx         00E0  8  FF 3B 00 E0 10 9D 00 00 
  1441)       860.1  Rx         0191  8  00 00 81 20 00 80 03 77 
  1442)       861.0  Rx         0122  8  00 00 00 00 00 00 04 D6 
  1443)       861.7  Rx         02A7  8  00 00 00 00 00 00 00 00 
  1444)       861.9  Rx         0123  8  00 00 00 00 00 00 04 D6 
  1445)       862.2  Rx         0124  8  00 00 00 00 00 00 40 8C 
  1446)       862.5  Rx         0125  8  00 00 01 08 00 40 04 D4 
  1447)       862.7  Rx         02C8  8  00 80 05 00 00 00 00 00 
  1448)       863.1  Rx         0081  8  00 00 10 0D 53 00 00 00 
  1449)       864.2  Rx         0084  8  00 00 00 7C C0 8F 9E 31 
  1450)       864.4  Rx         0085  8  99 00 0D 44 B2 60 00 E0 
  1451)       864.6  Rx         0086  8  81 1B 8F 7C 11 7D 40 35 
  1452)       864.8  Rx         0139  8  01 00 00 00 7F 7F 00 00 
  1453)       865.1  Rx         01A3  8  FF 00 30 00 00 00 0D 7F 
  1454)       865.4  Rx         01A6  8  FF FF 00 FF FF 00 00 00 
  1455)       865.6  Rx         01A7  8  FF FF 00 FF FF 00 00 00 
  1456)       866.3  Rx         0150  8  7E 00 08 00 85 01 0D 14 
  1457)       866.7  Rx         02A3  8  E7 00 FF 18 E7 00 03 FF 
  1458)       868.9  Rx         00E0  8  FF 3B 00 E0 20 92 00 00 
  1459)       869.9  Rx         01B0  8  05 20 50 01 00 00 01 E0 
  1460)       871.8  Rx         00F9  8  30 00 FF FF FF FF FF FF 
  1461)       872.0  Rx         00FA  8  0C FF FF FF FF FF FF FF 
  1462)       872.9  Rx         0081  8  00 00 10 0D 53 00 00 00 
  1463)       873.9  Rx         0084  8  00 00 00 7C C0 8F 9F 1E 
  1464)       874.1  Rx         0085  8  99 00 0D 46 59 60 00 F0 
  1465)       874.3  Rx         0086  8  81 1B 8F 7C 11 7D 40 35 
  1466)       874.6  Rx         01A2  8  80 05 00 80 10 06 02 24 
  1467)       874.8  Rx         0113  8  00 00 50 00 AA 09 00 84 
  1468)       875.9  Rx         02F1  8  20 4A FF FF FF 3F 6B 00 
  1469)       876.2  Rx         02F2  8  00 04 12 0A 0A 00 00 00 
  1470)       878.6  Rx         00E0  8  FF 3B 00 E0 30 72 00 00 
  1471)       880.1  Rx         0191  8  00 00 81 20 00 80 04 BA 
  1472)       881.1  Rx         0122  8  00 00 00 00 00 00 05 F9 
  1473)       881.7  Rx         02AE  8  01 00 00 00 00 00 60 00 
  1474)       882.0  Rx         0123  8  00 00 00 00 00 00 05 F9 
  1475)       882.2  Rx         0124  8  00 00 00 00 00 00 50 22 
  1476)       882.5  Rx         0125  8  00 00 01 08 00 40 05 FB 
  1477)       883.0  Rx         0081  8  00 00 10 0D 53 00 00 00 
  1478)       884.1  Rx         0084  8  00 00 00 7C C0 8F 90 84 
  1479)       884.3  Rx         0085  8  99 00 0D 4C FF 60 00 00 
  1480)       884.6  Rx         0086  8  81 1B 8F 7C 11 7D 40 35 
  1481)       886.1  Rx         0150  8  7E 00 08 00 85 01 0E 65 
  1482)       886.7  Rx         02D0  8  00 00 00 00 00 00 00 00 
  1483)       886.9  Rx         02A8  8  00 00 00 00 00 00 D0 C1 
  1484)       888.9  Rx         00E0  8  FF 3B 00 E0 40 8C 00 00 
  1485)       889.9  Rx         01B0  8  05 20 50 01 00 00 02 91 
  1486)       890.2  Rx         01B2  8  13 00 2B 3F 00 00 00 00 
  1487)       890.9  Rx         01F0  8  00 08 00 00 05 05 0A 97 
  1488)       891.3  Rx         01F2  8  B1 AD AA B1 2E 2C 2E 2D 
  1489)       891.7  Rx         00F9  8  30 00 FF FF FF FF FF FF 
  1490)       892.0  Rx         00FA  8  0C FF FF FF FF FF FF FF 
  1491)       892.2  Rx         0284  8  00 20 40 40 00 30 00 00 
  1492)       892.4  Rx         0287  8  00 00 00 00 42 10 01 21 
  1493)       893.3  Rx         0081  8  00 00 10 0D 53 00 00 00 
  1494)       893.6  Rx         0084  8  00 00 00 7C C0 8F 91 AB 
  1495)       893.8  Rx         0085  8  99 00 0D 4F A1 60 00 10 
  1496)       894.0  Rx         0086  8  81 1B 8F 7C 11 7D 40 35 
  1497)       894.3  Rx         028B  8  00 00 00 00 00 00 00 00 
  1498)       895.0  Rx         0113  8  00 00 50 00 AA 09 01 AB 
  1499)       895.2  Rx         01A2  8  80 05 00 80 20 06 02 2B 
  1500)       896.5  Rx         02C1  8  00 00 00 00 00 00 00 00 
  1501)       896.8  Rx         02AD  8  00 00 00 00 00 00 00 00 
  1502)       898.6  Rx         00E0  8  FF 3B 00 E0 50 6C 00 00 
  1503)       899.7  Rx         0191  8  00 00 81 20 00 80 05 95 
  1504)       901.0  Rx         0122  8  00 00 00 00 00 00 06 88 
  1505)       901.7  Rx         02A2  8  00 00 00 00 00 00 00 00 
  1506)       902.0  Rx         0123  8  00 00 00 00 00 00 06 88 
  1507)       902.2  Rx         0124  8  00 00 00 00 00 00 60 FF 
  1508)       902.5  Rx         0125  8  00 00 01 08 00 40 06 8A 
